time	I(C1)	I(D1)	I(L1)	I(Rl)	Ix(U2:C)
0.000000000000000e+000	-7.326227e-002	-8.501946e-004	6.861886e-004	7.241193e-002	1.536526e-003
8.487157972941750e-010	-7.320975e-002	-7.975837e-004	7.008311e-004	7.241202e-002	1.498392e-003
2.546147391882525e-009	-7.318684e-002	-7.746813e-004	7.306391e-004	7.241201e-002	1.505210e-003
5.941010580191863e-009	-7.319865e-002	-7.866210e-004	7.928574e-004	7.241189e-002	1.579237e-003
1.273073695681054e-008	-7.322031e-002	-8.085478e-004	9.283383e-004	7.241162e-002	1.736787e-003
2.631018971004789e-008	-7.325782e-002	-8.465570e-004	1.225918e-003	7.241111e-002	2.072627e-003
3.245081916028458e-008	-7.327322e-002	-8.621822e-004	1.372962e-003	7.241087e-002	2.235304e-003
3.604161945107431e-008	-7.318120e-002	-7.700724e-004	1.465139e-003	7.241096e-002	2.235359e-003
3.779790437585806e-008	-7.295005e-002	-5.384763e-004	1.511697e-003	7.241141e-002	2.050311e-003
3.864238683464610e-008	-7.276230e-002	-3.503353e-004	1.534428e-003	7.241179e-002	1.884910e-003
3.972605376774407e-008	-7.255494e-002	-1.425576e-004	1.563762e-003	7.241221e-002	1.696866e-003
4.021870242919279e-008	-7.250395e-002	-9.147542e-005	1.577122e-003	7.241230e-002	1.654177e-003
4.077946044993980e-008	-7.247674e-002	-6.423281e-005	1.592345e-003	7.241235e-002	1.647603e-003
4.142525489823912e-008	-7.245832e-002	-4.579242e-005	1.609885e-003	7.241236e-002	1.654006e-003
4.235230309339311e-008	-7.244401e-002	-3.147159e-005	1.635075e-003	7.241237e-002	1.665439e-003
4.338807456111954e-008	-7.243518e-002	-2.265680e-005	1.663228e-003	7.241236e-002	1.685218e-003
4.471526587109670e-008	-7.242895e-002	-1.645708e-005	1.699315e-003	7.241233e-002	1.715487e-003
4.644826321828499e-008	-7.242404e-002	-1.159038e-005	1.746449e-003	7.241228e-002	1.757966e-003
4.868952673160731e-008	-7.242041e-002	-8.025847e-006	1.807422e-003	7.241222e-002	1.815535e-003
5.153507544753549e-008	-7.241772e-002	-5.418834e-006	1.884853e-003	7.241213e-002	1.890503e-003
5.485964303750951e-008	-7.241594e-002	-3.742029e-006	1.975336e-003	7.241203e-002	1.979404e-003
5.936561331756907e-008	-7.241452e-002	-2.454337e-006	2.097993e-003	7.241189e-002	2.100834e-003
6.450722030062334e-008	-7.241356e-002	-1.667056e-006	2.237970e-003	7.241173e-002	2.240055e-003
7.184437201147170e-008	-7.241271e-002	-1.048119e-006	2.437741e-003	7.241151e-002	2.439229e-003
7.991742432145871e-008	-7.241211e-002	-6.976703e-007	2.657566e-003	7.241125e-002	2.658651e-003
9.236935616125513e-008	-7.241143e-002	-4.103122e-007	2.996647e-003	7.241086e-002	2.997359e-003
1.054961243788025e-007	-7.241087e-002	-2.632007e-007	3.354117e-003	7.241044e-002	3.354690e-003
1.275911724529441e-007	-7.241005e-002	-1.396515e-007	3.955822e-003	7.240975e-002	3.956200e-003
1.498326582657569e-007	-7.240930e-002	-9.016723e-008	4.561511e-003	7.240904e-002	4.561766e-003
1.913034773318861e-007	-7.240797e-002	-6.780881e-008	5.690830e-003	7.240774e-002	5.691062e-003
2.286827099065233e-007	-7.240681e-002	-8.747003e-008	6.708696e-003	7.240655e-002	6.708947e-003
2.609716622369723e-007	-7.240582e-002	-1.130094e-007	7.587924e-003	7.240554e-002	7.588202e-003
3.015579100335702e-007	-7.240455e-002	-1.243457e-007	8.693065e-003	7.240426e-002	8.693356e-003
3.275468071738119e-007	-7.240372e-002	-1.150728e-007	9.400722e-003	7.240344e-002	9.401003e-003
3.480682965739668e-007	-7.240305e-002	-9.732327e-008	9.959497e-003	7.240279e-002	9.959762e-003
3.753156639588889e-007	-7.240217e-002	-7.065461e-008	1.070140e-002	7.240193e-002	1.070163e-002
4.067889326489146e-007	-7.240115e-002	-4.474833e-008	1.155833e-002	7.240093e-002	1.155854e-002
4.469731535216084e-007	-7.239985e-002	-1.449037e-008	1.265239e-002	7.239968e-002	1.265257e-002
4.916589978346334e-007	-7.239842e-002	1.118815e-008	1.386891e-002	7.239826e-002	1.386906e-002
5.481812419133592e-007	-7.239661e-002	3.716584e-008	1.540751e-002	7.239648e-002	1.540764e-002
6.032058197623369e-007	-7.239486e-002	5.601677e-008	1.690516e-002	7.239474e-002	1.690527e-002
6.559513989418467e-007	-7.239318e-002	6.923743e-008	1.834058e-002	7.239308e-002	1.834068e-002
7.115824550108993e-007	-7.239141e-002	7.933516e-008	1.985430e-002	7.239132e-002	1.985439e-002
7.682033174921318e-007	-7.238962e-002	8.687400e-008	2.139472e-002	7.238954e-002	2.139480e-002
8.219864695941867e-007	-7.238792e-002	9.236312e-008	2.285770e-002	7.238784e-002	2.285777e-002
8.724009557120604e-007	-7.238632e-002	9.587170e-008	2.422883e-002	7.238625e-002	2.422890e-002
9.228304252741071e-007	-7.238473e-002	9.831948e-008	2.560015e-002	7.238466e-002	2.560021e-002
9.804277606943052e-007	-7.238291e-002	1.007660e-007	2.716612e-002	7.238284e-002	2.716618e-002
1.037851177853634e-006	-7.238109e-002	1.020922e-007	2.872708e-002	7.238103e-002	2.872714e-002
1.106601508329107e-006	-7.237893e-002	1.036465e-007	3.059557e-002	7.237887e-002	3.059563e-002
1.174026084469274e-006	-7.237680e-002	1.044276e-007	3.242765e-002	7.237674e-002	3.242771e-002
1.248102066172055e-006	-7.237446e-002	1.052755e-007	3.444000e-002	7.237440e-002	3.444006e-002
1.327802359707073e-006	-7.237195e-002	1.057010e-007	3.660464e-002	7.237189e-002	3.660470e-002
1.403348523755510e-006	-7.236957e-002	1.059381e-007	3.865595e-002	7.236951e-002	3.865601e-002
1.480767170545724e-006	-7.236712e-002	1.061768e-007	4.075760e-002	7.236706e-002	4.075766e-002
1.553502806291018e-006	-7.236483e-002	1.061615e-007	4.273165e-002	7.236477e-002	4.273171e-002
1.623573718110422e-006	-7.236262e-002	1.062265e-007	4.463295e-002	7.236256e-002	4.463300e-002
1.697302664983511e-006	-7.236030e-002	1.062195e-007	4.663304e-002	7.236024e-002	4.663310e-002
1.764371827627301e-006	-7.235818e-002	1.062918e-007	4.845207e-002	7.235812e-002	4.845213e-002
1.836442735474869e-006	-7.235591e-002	1.063836e-007	5.040631e-002	7.235585e-002	5.040637e-002
1.906704517772549e-006	-7.235370e-002	1.064531e-007	5.231107e-002	7.235364e-002	5.231113e-002
1.976501175419629e-006	-7.235149e-002	1.067768e-007	5.420277e-002	7.235143e-002	5.420283e-002
2.067037965019711e-006	-7.234864e-002	1.065130e-007	5.665597e-002	7.234858e-002	5.665603e-002
2.154260135054861e-006	-7.234589e-002	1.068807e-007	5.901864e-002	7.234583e-002	5.901870e-002
2.289937400499174e-006	-7.234162e-002	1.065154e-007	6.269256e-002	7.234156e-002	6.269262e-002
2.420424836082485e-006	-7.233751e-002	1.068653e-007	6.622422e-002	7.233745e-002	6.622428e-002
2.681399707248240e-006	-7.232928e-002	1.064962e-007	7.328318e-002	7.232922e-002	7.328324e-002
2.934035817895968e-006	-7.232132e-002	1.066521e-007	8.011057e-002	7.232126e-002	8.011063e-002
3.398035817896335e-006	-7.230669e-002	1.064495e-007	9.263565e-002	7.230663e-002	9.263571e-002
3.862035817896702e-006	-7.229207e-002	1.064213e-007	1.051444e-001	7.229201e-002	1.051444e-001
4.326035817897068e-006	-7.227746e-002	1.063913e-007	1.176347e-001	7.227740e-002	1.176347e-001
4.790035817897435e-006	-7.226285e-002	1.063599e-007	1.301065e-001	7.226279e-002	1.301066e-001
5.254035817897802e-006	-7.224824e-002	1.063281e-007	1.425600e-001	7.224818e-002	1.425601e-001
5.718035817898169e-006	-7.223364e-002	1.062958e-007	1.549952e-001	7.223358e-002	1.549953e-001
6.182035817898536e-006	-7.221904e-002	1.062638e-007	1.674120e-001	7.221898e-002	1.674121e-001
6.646035817898903e-006	-7.220443e-002	1.062313e-007	1.798106e-001	7.220438e-002	1.798106e-001
7.110035817899270e-006	-7.218984e-002	1.061990e-007	1.921909e-001	7.218978e-002	1.921909e-001
7.574035817899637e-006	-7.217524e-002	1.061667e-007	2.045529e-001	7.217519e-002	2.045529e-001
8.038035817900004e-006	-7.216065e-002	1.061344e-007	2.168967e-001	7.216060e-002	2.168968e-001
8.502035817900371e-006	-7.214607e-002	1.061019e-007	2.292223e-001	7.214601e-002	2.292224e-001
8.966035817900737e-006	-7.213148e-002	1.060698e-007	2.415298e-001	7.213143e-002	2.415299e-001
9.430035817901104e-006	-7.211690e-002	1.060373e-007	2.538191e-001	7.211684e-002	2.538192e-001
9.894035817901471e-006	-7.210232e-002	1.060048e-007	2.660903e-001	7.210226e-002	2.660904e-001
1.035803581790184e-005	-7.208774e-002	1.059723e-007	2.783435e-001	7.208769e-002	2.783435e-001
1.082203581790221e-005	-7.207317e-002	1.059402e-007	2.905786e-001	7.207312e-002	2.905786e-001
1.128603581790257e-005	-7.205860e-002	1.059079e-007	3.027956e-001	7.205854e-002	3.027957e-001
1.221403581790331e-005	-7.202947e-002	1.058434e-007	3.271757e-001	7.202941e-002	3.271758e-001
1.314203581790404e-005	-7.200035e-002	1.057792e-007	3.514841e-001	7.200029e-002	3.514842e-001
1.407003581790477e-005	-7.197124e-002	1.057151e-007	3.757209e-001	7.197118e-002	3.757209e-001
1.499803581790551e-005	-7.194215e-002	1.056510e-007	3.998863e-001	7.194209e-002	3.998863e-001
1.553599999999916e-005	-7.192528e-002	1.062908e-007	4.138666e-001	7.192522e-002	4.138667e-001
1.568392836418572e-005	-7.192065e-002	1.099151e-007	4.177057e-001	7.192059e-002	4.177058e-001
1.574457308650776e-005	-7.191875e-002	1.047181e-007	4.192790e-001	7.191869e-002	4.192791e-001
1.589542649533312e-005	-7.191402e-002	1.065430e-007	4.231913e-001	7.191396e-002	4.231913e-001
1.593853462051372e-005	-7.191256e-002	2.126506e-007	4.243089e-001	7.191261e-002	4.243089e-001
1.593953462051406e-005	-7.191259e-002	1.590073e-007	4.243349e-001	7.191258e-002	4.243349e-001
1.594153462051474e-005	-7.191259e-002	9.223034e-008	4.243867e-001	7.191251e-002	4.243868e-001
1.594414940491850e-005	-7.191249e-002	1.090601e-007	4.244545e-001	7.191243e-002	4.244545e-001
1.594699697812351e-005	-7.191242e-002	8.409294e-008	4.245283e-001	7.191235e-002	4.245284e-001
1.595269212453440e-005	-7.191221e-002	1.144535e-007	4.246759e-001	7.191216e-002	4.246760e-001
1.596232617055455e-005	-7.191193e-002	1.006333e-007	4.249257e-001	7.191186e-002	4.249257e-001
1.597797859250166e-005	-7.191155e-002	-1.155908e-008	4.253314e-001	7.191137e-002	4.253316e-001
1.597897859250200e-005	-7.191146e-002	4.310558e-008	4.253573e-001	7.191134e-002	4.253575e-001
1.598097859250268e-005	-7.191131e-002	1.370183e-007	4.254092e-001	7.191128e-002	4.254092e-001
1.598497859250404e-005	-7.191122e-002	9.328618e-008	4.255129e-001	7.191116e-002	4.255129e-001
1.599155386272210e-005	-7.191111e-002	2.530059e-010	4.256833e-001	7.191095e-002	4.256835e-001
1.599255386272244e-005	-7.191104e-002	4.320464e-008	4.257092e-001	7.191092e-002	4.257094e-001
1.599455386272312e-005	-7.191093e-002	8.272248e-008	4.257611e-001	7.191085e-002	4.257612e-001
1.599599999999816e-005	-7.191084e-002	1.299493e-007	4.257986e-001	7.191081e-002	4.257986e-001
1.599710772544945e-005	-7.191090e-002	4.092441e-008	4.258273e-001	7.191078e-002	4.258274e-001
1.599778454909693e-005	-7.191085e-002	6.685726e-008	4.258448e-001	7.191075e-002	4.258449e-001
1.599864635270457e-005	-7.191096e-002	-6.450878e-008	4.258671e-001	7.191072e-002	4.258674e-001
1.599899999999918e-005	-7.191073e-002	1.471367e-007	4.258763e-001	7.191071e-002	4.258763e-001
1.599929270541031e-005	-7.191111e-002	-2.449229e-007	4.258839e-001	7.191070e-002	4.258843e-001
1.599941458917727e-005	-7.191110e-002	-2.298238e-007	4.258870e-001	7.191070e-002	4.258875e-001
1.599965835671121e-005	-7.191067e-002	1.863576e-007	4.258934e-001	7.191069e-002	4.258934e-001
1.599999999999952e-005	-7.190877e-002	2.075283e-006	4.259022e-001	7.191069e-002	4.259003e-001
1.600001301703749e-005	-7.190922e-002	1.632357e-006	4.259026e-001	7.191069e-002	4.259011e-001
1.600003905111343e-005	-7.191046e-002	3.888003e-007	4.259032e-001	7.191068e-002	4.259030e-001
1.600008383100850e-005	-7.191074e-002	1.037503e-007	4.259044e-001	7.191068e-002	4.259045e-001
1.600013176714446e-005	-7.191069e-002	1.485725e-007	4.259056e-001	7.191068e-002	4.259056e-001
1.600019629543169e-005	-7.191069e-002	1.483398e-007	4.259073e-001	7.191068e-002	4.259073e-001
1.600025977739790e-005	-7.191068e-002	1.604550e-007	4.259090e-001	7.191068e-002	4.259090e-001
1.600035982501219e-005	-7.191068e-002	1.603816e-007	4.259115e-001	7.191067e-002	4.259115e-001
1.600049053953560e-005	-7.191067e-002	1.593287e-007	4.259149e-001	7.191067e-002	4.259149e-001
1.600075196858328e-005	-7.191068e-002	1.491046e-007	4.259217e-001	7.191066e-002	4.259217e-001
1.600099999999986e-005	-7.191068e-002	1.362568e-007	4.259281e-001	7.191065e-002	4.259282e-001
1.600102480314117e-005	-7.191068e-002	1.336779e-007	4.259288e-001	7.191065e-002	4.259288e-001
1.600107440942467e-005	-7.191069e-002	1.232266e-007	4.259301e-001	7.191065e-002	4.259301e-001
1.600117362199165e-005	-7.191072e-002	9.938212e-008	4.259326e-001	7.191065e-002	4.259327e-001
1.600127041165040e-005	-7.191072e-002	8.501395e-008	4.259351e-001	7.191064e-002	4.259352e-001
1.600139913621179e-005	-7.191072e-002	8.023708e-008	4.259385e-001	7.191064e-002	4.259386e-001
1.600156036526360e-005	-7.191072e-002	8.344514e-008	4.259427e-001	7.191063e-002	4.259427e-001
1.600188282336722e-005	-7.191069e-002	9.291426e-008	4.259510e-001	7.191063e-002	4.259511e-001
1.600231225195887e-005	-7.191067e-002	1.003063e-007	4.259622e-001	7.191061e-002	4.259622e-001
1.600281516432427e-005	-7.191066e-002	1.035103e-007	4.259752e-001	7.191060e-002	4.259753e-001
1.600346576072394e-005	-7.191063e-002	1.045586e-007	4.259921e-001	7.191058e-002	4.259921e-001
1.600443408545163e-005	-7.191060e-002	1.048546e-007	4.260172e-001	7.191055e-002	4.260172e-001
1.600618132430263e-005	-7.191055e-002	1.049093e-007	4.260624e-001	7.191049e-002	4.260625e-001
1.600967580200376e-005	-7.191044e-002	1.049447e-007	4.261530e-001	7.191038e-002	4.261531e-001
1.601666475740601e-005	-7.191022e-002	1.049639e-007	4.263341e-001	7.191017e-002	4.263342e-001
1.602011422000785e-005	-7.191011e-002	1.047890e-007	4.264235e-001	7.191005e-002	4.264236e-001
1.602393325531460e-005	-7.190999e-002	1.037865e-007	4.265225e-001	7.190993e-002	4.265226e-001
1.602596727128154e-005	-7.190993e-002	1.018420e-007	4.265752e-001	7.190987e-002	4.265753e-001
1.602734508977365e-005	-7.190989e-002	9.856594e-008	4.266110e-001	7.190983e-002	4.266110e-001
1.602853728555932e-005	-7.190986e-002	9.331400e-008	4.266419e-001	7.190979e-002	4.266419e-001
1.602947241134516e-005	-7.190984e-002	8.672290e-008	4.266661e-001	7.190976e-002	4.266662e-001
1.603029777763956e-005	-7.190982e-002	7.813975e-008	4.266875e-001	7.190973e-002	4.266876e-001
1.603106442650722e-005	-7.190981e-002	6.711106e-008	4.267074e-001	7.190971e-002	4.267074e-001
1.603184302476166e-005	-7.190980e-002	5.236272e-008	4.267275e-001	7.190969e-002	4.267277e-001
1.603269648390790e-005	-7.190979e-002	3.239855e-008	4.267496e-001	7.190966e-002	4.267498e-001
1.603354746240043e-005	-7.190979e-002	8.927525e-009	4.267717e-001	7.190963e-002	4.267718e-001
1.603469622707670e-005	-7.190979e-002	-2.574060e-008	4.268015e-001	7.190960e-002	4.268017e-001
1.603608208084612e-005	-7.190978e-002	-6.437326e-008	4.268374e-001	7.190955e-002	4.268376e-001
1.603813855044576e-005	-7.190976e-002	-1.026945e-007	4.268907e-001	7.190949e-002	4.268910e-001
1.604140629753777e-005	-7.190967e-002	-1.218757e-007	4.269754e-001	7.190938e-002	4.269757e-001
1.604451949829659e-005	-7.190956e-002	-1.139137e-007	4.270561e-001	7.190929e-002	4.270563e-001
1.604713877064942e-005	-7.190948e-002	-1.138448e-007	4.271239e-001	7.190920e-002	4.271241e-001
1.604978589001428e-005	-7.191014e-002	-8.501042e-007	4.271925e-001	7.190912e-002	4.271935e-001
1.605122245186292e-005	-7.191158e-002	-2.346099e-006	4.272298e-001	7.190907e-002	4.272322e-001
1.605295089473005e-005	-7.191323e-002	-4.049515e-006	4.272746e-001	7.190901e-002	4.272785e-001
1.605430513236267e-005	-7.191317e-002	-4.026733e-006	4.273097e-001	7.190897e-002	4.273132e-001
1.605579913826517e-005	-7.191264e-002	-3.550352e-006	4.273484e-001	7.190893e-002	4.273514e-001
1.605801291478318e-005	-7.191210e-002	-3.074084e-006	4.274058e-001	7.190886e-002	4.274087e-001
1.606121393220392e-005	-7.191138e-002	-2.450718e-006	4.274888e-001	7.190876e-002	4.274914e-001
1.606465283592734e-005	-7.191097e-002	-2.151464e-006	4.275779e-001	7.190865e-002	4.275803e-001
1.607012363763396e-005	-7.191056e-002	-1.913424e-006	4.277198e-001	7.190848e-002	4.277219e-001
1.607804226565635e-005	-7.191005e-002	-1.658906e-006	4.279252e-001	7.190824e-002	4.279270e-001
1.609034390212365e-005	-7.190932e-002	-1.312961e-006	4.282443e-001	7.190785e-002	4.282459e-001
1.611412622932584e-005	-7.190792e-002	-6.407083e-007	4.288614e-001	7.190710e-002	4.288623e-001
1.613755315239829e-005	-7.190648e-002	5.295589e-008	4.294693e-001	7.190637e-002	4.294695e-001
1.614785016722936e-005	-7.190578e-002	4.425296e-007	4.297365e-001	7.190605e-002	4.297363e-001
1.615412888021986e-005	-7.190531e-002	7.137403e-007	4.298994e-001	7.190586e-002	4.298989e-001
1.616045528664116e-005	-7.190490e-002	9.270220e-007	4.300636e-001	7.190566e-002	4.300629e-001
1.616364739800806e-005	-7.190471e-002	1.007029e-006	4.301464e-001	7.190556e-002	4.301456e-001
1.616569967362834e-005	-7.190464e-002	1.022985e-006	4.301997e-001	7.190549e-002	4.301988e-001
1.616756320817724e-005	-7.190458e-002	1.026973e-006	4.302480e-001	7.190543e-002	4.302472e-001
1.616976881764400e-005	-7.190450e-002	1.035242e-006	4.303052e-001	7.190537e-002	4.303044e-001
1.617208243709454e-005	-7.190442e-002	1.035086e-006	4.303652e-001	7.190529e-002	4.303644e-001
1.617457125081562e-005	-7.190434e-002	1.037779e-006	4.304298e-001	7.190522e-002	4.304290e-001
1.617736027646494e-005	-7.190426e-002	1.036256e-006	4.305021e-001	7.190513e-002	4.305013e-001
1.618022259600432e-005	-7.190417e-002	1.036554e-006	4.305764e-001	7.190504e-002	4.305755e-001
1.618353098065215e-005	-7.190406e-002	1.034803e-006	4.306622e-001	7.190493e-002	4.306614e-001
1.618689400785783e-005	-7.190396e-002	1.034752e-006	4.307494e-001	7.190483e-002	4.307486e-001
1.619104373631278e-005	-7.190383e-002	1.034042e-006	4.308571e-001	7.190470e-002	4.308562e-001
1.619496857248499e-005	-7.190371e-002	1.035077e-006	4.309588e-001	7.190458e-002	4.309580e-001
1.619992753677194e-005	-7.190355e-002	1.037193e-006	4.310874e-001	7.190442e-002	4.310866e-001
1.620459667077585e-005	-7.190339e-002	1.041510e-006	4.312085e-001	7.190427e-002	4.312076e-001
1.621035422305975e-005	-7.190321e-002	1.049210e-006	4.313578e-001	7.190409e-002	4.313569e-001
1.621633425369449e-005	-7.190301e-002	1.061350e-006	4.315128e-001	7.190391e-002	4.315119e-001
1.622354910485891e-005	-7.190277e-002	1.081580e-006	4.316999e-001	7.190368e-002	4.316989e-001
1.623178968020427e-005	-7.190247e-002	1.114531e-006	4.319135e-001	7.190342e-002	4.319124e-001
1.624249155596051e-005	-7.190207e-002	1.175731e-006	4.321908e-001	7.190309e-002	4.321896e-001
1.625556601066430e-005	-7.190154e-002	1.292481e-006	4.325295e-001	7.190268e-002	4.325278e-001
1.627543057168557e-005	-7.190061e-002	1.615031e-006	4.330440e-001	7.190206e-002	4.330416e-001
1.630195004954666e-005	-7.189883e-002	2.568802e-006	4.337305e-001	7.190122e-002	4.337277e-001
1.632284643630130e-005	-7.189631e-002	4.430431e-006	4.342711e-001	7.190058e-002	4.342668e-001
1.633837684287143e-005	-7.189234e-002	7.917396e-006	4.346724e-001	7.190010e-002	4.346647e-001
1.634934649828723e-005	-7.188591e-002	1.401493e-005	4.349556e-001	7.189977e-002	4.349417e-001
1.635738620968559e-005	-7.187495e-002	2.475165e-005	4.351628e-001	7.189954e-002	4.351382e-001
1.636345401656841e-005	-7.185573e-002	4.382303e-005	4.353188e-001	7.189939e-002	4.352751e-001
1.636812037351856e-005	-7.182169e-002	7.779404e-005	4.354385e-001	7.189932e-002	4.353608e-001
1.637178026583832e-005	-7.176086e-002	1.386484e-004	4.355319e-001	7.189934e-002	4.353934e-001
1.637476884741237e-005	-7.165833e-002	2.413061e-004	4.356077e-001	7.189947e-002	4.353658e-001
1.637809414152276e-005	-7.153350e-002	3.662977e-004	4.356912e-001	7.189964e-002	4.353234e-001
1.638137573845531e-005	-7.148451e-002	4.152870e-004	4.357723e-001	7.189964e-002	4.353561e-001
1.638496176898339e-005	-7.148336e-002	4.163368e-004	4.358593e-001	7.189953e-002	4.354430e-001
1.638864400726071e-005	-7.148205e-002	4.175335e-004	4.359468e-001	7.189942e-002	4.355294e-001
1.639253589383501e-005	-7.148061e-002	4.188514e-004	4.360371e-001	7.189930e-002	4.356184e-001
1.639767670272643e-005	-7.147867e-002	4.206308e-004	4.361531e-001	7.189915e-002	4.357326e-001
1.640388882794257e-005	-7.147624e-002	4.228792e-004	4.362883e-001	7.189896e-002	4.358656e-001
