time	I(C1)	I(D1)	I(L1)	I(Rl)	Ix(U2:C)
0.000000000000000e+000	-2.701575e-001	-7.953286e-004	6.010888e-001	2.693621e-001	6.018843e-001
1.294425983067171e-009	-2.701663e-001	-8.047807e-004	6.011073e-001	2.693614e-001	6.019120e-001
3.883277949201514e-009	-2.701762e-001	-8.160310e-004	6.011455e-001	2.693600e-001	6.019614e-001
9.060981882337560e-009	-2.701921e-001	-8.345546e-004	6.012279e-001	2.693574e-001	6.020626e-001
1.941638974774229e-008	-2.702202e-001	-8.679071e-004	6.014158e-001	2.693522e-001	6.022839e-001
3.570777738336889e-008	-2.701940e-001	-8.492946e-004	6.017515e-001	2.693445e-001	6.026009e-001
4.089347844984242e-008	-2.699074e-001	-5.626677e-004	6.018703e-001	2.693446e-001	6.024323e-001
4.354417282650958e-008	-2.696177e-001	-2.716257e-004	6.019352e-001	2.693459e-001	6.022058e-001
4.614981846586680e-008	-2.694711e-001	-1.250287e-004	6.020001e-001	2.693459e-001	6.021248e-001
4.717354649443062e-008	-2.694509e-001	-1.050684e-004	6.020257e-001	2.693456e-001	6.021271e-001
4.859555487526923e-008	-2.694151e-001	-6.961770e-005	6.020613e-001	2.693453e-001	6.021219e-001
5.026318054390105e-008	-2.693996e-001	-5.477241e-005	6.021032e-001	2.693446e-001	6.021527e-001
5.182252847766439e-008	-2.693879e-001	-4.379036e-005	6.021423e-001	2.693440e-001	6.021847e-001
5.494122434519105e-008	-2.693733e-001	-3.056040e-005	6.022208e-001	2.693426e-001	6.022499e-001
5.892283440160628e-008	-2.693615e-001	-2.052067e-005	6.023211e-001	2.693408e-001	6.023404e-001
6.406934299329342e-008	-2.693520e-001	-1.340587e-005	6.024509e-001	2.693384e-001	6.024639e-001
7.030675998592056e-008	-2.693444e-001	-8.773131e-006	6.026083e-001	2.693355e-001	6.026174e-001
7.774481418018620e-008	-2.693378e-001	-5.758261e-006	6.027961e-001	2.693319e-001	6.028027e-001
8.903472123455991e-008	-2.693301e-001	-3.432165e-006	6.030815e-001	2.693266e-001	6.030859e-001
1.002167786656044e-007	-2.693236e-001	-2.187768e-006	6.033642e-001	2.693213e-001	6.033672e-001
1.177976486025495e-007	-2.693143e-001	-1.254209e-006	6.038089e-001	2.693129e-001	6.038105e-001
1.365216058457283e-007	-2.693048e-001	-7.019905e-007	6.042827e-001	2.693040e-001	6.042835e-001
1.660829405817146e-007	-2.692904e-001	-3.248486e-007	6.050308e-001	2.692899e-001	6.050313e-001
1.976376990389314e-007	-2.692751e-001	-1.197506e-007	6.058295e-001	2.692749e-001	6.058298e-001
2.337978926595860e-007	-2.692578e-001	-2.892889e-008	6.067449e-001	2.692576e-001	6.067451e-001
2.678572459018438e-007	-2.692415e-001	1.389266e-008	6.076072e-001	2.692414e-001	6.076074e-001
3.070871316922241e-007	-2.692228e-001	8.263813e-008	6.086004e-001	2.692227e-001	6.086006e-001
3.272337727351637e-007	-2.692132e-001	8.016742e-008	6.091105e-001	2.692131e-001	6.091107e-001
3.474681368959356e-007	-2.692035e-001	9.550728e-008	6.096229e-001	2.692035e-001	6.096230e-001
3.743597461400294e-007	-2.691906e-001	1.611521e-007	6.103038e-001	2.691906e-001	6.103038e-001
4.083189109839111e-007	-2.691744e-001	1.887290e-007	6.111636e-001	2.691745e-001	6.111636e-001
4.472642760027651e-007	-2.691558e-001	2.380704e-007	6.121497e-001	2.691559e-001	6.121496e-001
4.926111080577611e-007	-2.691342e-001	2.636978e-007	6.132978e-001	2.691343e-001	6.132976e-001
5.488348718855549e-007	-2.691074e-001	3.019006e-007	6.147211e-001	2.691075e-001	6.147209e-001
6.040357419566725e-007	-2.690811e-001	3.274180e-007	6.161184e-001	2.690812e-001	6.161182e-001
6.562437618691172e-007	-2.690562e-001	3.440318e-007	6.174397e-001	2.690564e-001	6.174395e-001
7.116871390076135e-007	-2.690298e-001	3.543425e-007	6.188428e-001	2.690300e-001	6.188425e-001
7.692935384481792e-007	-2.690023e-001	3.625898e-007	6.203003e-001	2.690026e-001	6.203001e-001
8.213702602302697e-007	-2.689775e-001	3.754903e-007	6.216177e-001	2.689778e-001	6.216176e-001
8.650890674314488e-007	-2.689567e-001	3.781177e-007	6.227236e-001	2.689569e-001	6.227234e-001
9.140866375793519e-007	-2.689334e-001	3.784698e-007	6.239628e-001	2.689336e-001	6.239626e-001
9.626507160472031e-007	-2.689103e-001	3.802914e-007	6.251909e-001	2.689105e-001	6.251906e-001
1.010013006549036e-006	-2.688877e-001	3.805038e-007	6.263883e-001	2.688880e-001	6.263881e-001
1.061600532868343e-006	-2.688632e-001	3.822570e-007	6.276925e-001	2.688634e-001	6.276922e-001
1.109130514298160e-006	-2.688406e-001	3.819577e-007	6.288938e-001	2.688408e-001	6.288936e-001
1.163511544387784e-006	-2.688147e-001	3.837183e-007	6.302681e-001	2.688149e-001	6.302679e-001
1.212483337977716e-006	-2.687914e-001	3.836113e-007	6.315055e-001	2.687916e-001	6.315053e-001
1.268299935364321e-006	-2.687648e-001	3.856420e-007	6.329156e-001	2.687651e-001	6.329154e-001
1.320355002821377e-006	-2.687401e-001	3.837598e-007	6.342304e-001	2.687403e-001	6.342302e-001
1.382535661644674e-006	-2.687105e-001	3.869029e-007	6.358008e-001	2.687107e-001	6.358005e-001
1.442038166449972e-006	-2.686822e-001	3.827636e-007	6.373032e-001	2.686824e-001	6.373029e-001
1.523219487789725e-006	-2.686436e-001	3.867904e-007	6.393525e-001	2.686438e-001	6.393523e-001
1.597514931140145e-006	-2.686083e-001	3.873517e-007	6.412275e-001	2.686085e-001	6.412273e-001
1.675773563449001e-006	-2.685710e-001	3.887625e-007	6.432021e-001	2.685713e-001	6.432019e-001
1.756976976377729e-006	-2.685325e-001	3.867797e-007	6.452505e-001	2.685327e-001	6.452503e-001
1.847907060024447e-006	-2.684893e-001	3.905007e-007	6.475435e-001	2.684895e-001	6.475433e-001
1.958919819040200e-006	-2.684365e-001	3.867081e-007	6.503421e-001	2.684368e-001	6.503419e-001
2.091000732735993e-006	-2.683738e-001	3.902174e-007	6.536705e-001	2.683740e-001	6.536703e-001
2.262758909868379e-006	-2.682922e-001	3.866758e-007	6.579965e-001	2.682925e-001	6.579962e-001
2.491379150417090e-006	-2.681837e-001	3.897515e-007	6.637506e-001	2.681839e-001	6.637504e-001
2.828948457181575e-006	-2.680235e-001	3.872236e-007	6.722389e-001	2.680237e-001	6.722386e-001
3.292948457181942e-006	-2.678035e-001	3.879504e-007	6.838924e-001	2.678037e-001	6.838921e-001
3.756948457182309e-006	-2.675836e-001	3.877853e-007	6.955298e-001	2.675839e-001	6.955296e-001
4.220948457182676e-006	-2.673640e-001	3.876171e-007	7.071502e-001	2.673642e-001	7.071500e-001
4.684948457183043e-006	-2.671445e-001	3.874457e-007	7.187534e-001	2.671448e-001	7.187532e-001
5.148948457183410e-006	-2.669252e-001	3.872751e-007	7.303395e-001	2.669255e-001	7.303393e-001
5.612948457183777e-006	-2.667061e-001	3.871023e-007	7.419086e-001	2.667063e-001	7.419084e-001
6.076948457184143e-006	-2.664872e-001	3.869300e-007	7.534606e-001	2.664874e-001	7.534604e-001
6.540948457184510e-006	-2.662684e-001	3.867553e-007	7.649956e-001	2.662686e-001	7.649954e-001
7.004948457184877e-006	-2.660498e-001	3.865825e-007	7.765136e-001	2.660500e-001	7.765134e-001
7.468948457185244e-006	-2.658314e-001	3.864084e-007	7.880147e-001	2.658316e-001	7.880144e-001
7.932948457185611e-006	-2.656132e-001	3.862356e-007	7.994987e-001	2.656134e-001	7.994985e-001
8.396948457185978e-006	-2.653952e-001	3.860609e-007	8.109659e-001	2.653954e-001	8.109657e-001
8.860948457186345e-006	-2.651773e-001	3.858877e-007	8.224161e-001	2.651775e-001	8.224159e-001
9.324948457186712e-006	-2.649596e-001	3.857126e-007	8.338495e-001	2.649598e-001	8.338493e-001
9.788948457187079e-006	-2.647421e-001	3.855394e-007	8.452661e-001	2.647423e-001	8.452659e-001
1.025294845718745e-005	-2.645248e-001	3.853652e-007	8.566658e-001	2.645250e-001	8.566656e-001
1.071694845718781e-005	-2.643076e-001	3.851928e-007	8.680487e-001	2.643079e-001	8.680485e-001
1.118094845718818e-005	-2.640907e-001	3.850182e-007	8.794149e-001	2.640909e-001	8.794146e-001
1.210894845718891e-005	-2.636572e-001	3.846708e-007	9.020970e-001	2.636575e-001	9.020967e-001
1.303694845718965e-005	-2.632245e-001	3.843243e-007	9.247123e-001	2.632248e-001	9.247121e-001
1.396494845719038e-005	-2.627926e-001	3.839768e-007	9.472610e-001	2.627928e-001	9.472607e-001
1.489294845719111e-005	-2.623613e-001	3.836303e-007	9.697433e-001	2.623615e-001	9.697430e-001
1.535694845719148e-005	-2.621459e-001	3.797524e-007	9.809622e-001	2.621461e-001	9.809619e-001
1.553599999999916e-005	-2.620628e-001	3.875442e-007	9.852872e-001	2.620631e-001	9.852869e-001
1.564189691438418e-005	-2.620137e-001	3.861719e-007	9.878433e-001	2.620139e-001	9.878431e-001
1.578820617122948e-005	-2.619449e-001	1.294770e-006	9.913737e-001	2.619461e-001	9.913726e-001
1.578920617122982e-005	-2.619449e-001	8.775534e-007	9.913979e-001	2.619456e-001	9.913971e-001
1.579120617123050e-005	-2.619445e-001	2.989158e-007	9.914461e-001	2.619447e-001	9.914460e-001
1.579367817803028e-005	-2.619433e-001	4.224750e-007	9.915057e-001	2.619435e-001	9.915054e-001
1.579646510842334e-005	-2.619421e-001	3.066227e-007	9.915729e-001	2.619422e-001	9.915728e-001
1.580090544251161e-005	-2.619399e-001	4.053780e-007	9.916800e-001	2.619402e-001	9.916798e-001
1.580628845859050e-005	-2.619375e-001	3.535631e-007	9.918099e-001	2.619377e-001	9.918097e-001
1.581429672762452e-005	-2.619337e-001	4.000159e-007	9.920031e-001	2.619340e-001	9.920028e-001
1.582554393329046e-005	-2.619286e-001	3.717204e-007	9.922743e-001	2.619288e-001	9.922741e-001
1.584139197663773e-005	-2.619212e-001	3.921428e-007	9.926566e-001	2.619214e-001	9.926563e-001
1.586479545550266e-005	-2.619103e-001	3.778264e-007	9.932210e-001	2.619106e-001	9.932207e-001
1.589811231638219e-005	-2.618949e-001	3.873047e-007	9.940244e-001	2.618951e-001	9.940242e-001
1.594705518398725e-005	-2.618719e-001	7.462932e-007	9.952045e-001	2.618725e-001	9.952039e-001
1.594805518398759e-005	-2.618716e-001	5.789411e-007	9.952286e-001	2.618720e-001	9.952282e-001
1.595005518398827e-005	-2.618709e-001	3.041508e-007	9.952769e-001	2.618711e-001	9.952767e-001
1.595405518398964e-005	-2.618690e-001	3.880308e-007	9.953733e-001	2.618692e-001	9.953731e-001
1.595824509415672e-005	-2.618670e-001	3.505335e-007	9.954743e-001	2.618673e-001	9.954741e-001
1.596662491449175e-005	-2.618631e-001	3.964656e-007	9.956763e-001	2.618634e-001	9.956761e-001
1.598107309299171e-005	-2.618562e-001	6.025379e-007	9.960247e-001	2.618567e-001	9.960243e-001
1.598207309299205e-005	-2.618559e-001	5.056284e-007	9.960487e-001	2.618562e-001	9.960485e-001
1.598407309299273e-005	-2.618551e-001	3.302134e-007	9.960970e-001	2.618553e-001	9.960968e-001
1.598807309299410e-005	-2.618532e-001	3.971061e-007	9.961934e-001	2.618535e-001	9.961932e-001
1.599357021568604e-005	-2.618505e-001	5.301289e-007	9.963259e-001	2.618509e-001	9.963256e-001
1.599457021568638e-005	-2.618501e-001	4.755608e-007	9.963500e-001	2.618504e-001	9.963497e-001
1.599657021568706e-005	-2.618492e-001	4.592848e-007	9.963983e-001	2.618495e-001	9.963979e-001
1.599757021568740e-005	-2.618490e-001	2.038492e-007	9.964224e-001	2.618490e-001	9.964223e-001
1.599799999999884e-005	-2.618488e-001	2.162482e-007	9.964327e-001	2.618488e-001	9.964327e-001
1.599885956862172e-005	-2.618488e-001	-2.508606e-007	9.964535e-001	2.618484e-001	9.964538e-001
1.599899999999918e-005	-2.618485e-001	-2.113173e-008	9.964568e-001	2.618484e-001	9.964570e-001
1.599928086275411e-005	-2.618482e-001	1.928041e-007	9.964636e-001	2.618482e-001	9.964635e-001
1.599943827448967e-005	-2.618481e-001	1.934721e-007	9.964674e-001	2.618482e-001	9.964674e-001
1.599968517652841e-005	-2.618478e-001	4.473161e-007	9.964733e-001	2.618481e-001	9.964730e-001
1.599999999999952e-005	-2.618454e-001	2.656371e-006	9.964809e-001	2.618479e-001	9.964784e-001
1.600001422964563e-005	-2.618459e-001	2.111252e-006	9.964813e-001	2.618479e-001	9.964793e-001
1.600004268893784e-005	-2.618474e-001	6.082937e-007	9.964820e-001	2.618479e-001	9.964815e-001
1.600008587690060e-005	-2.618476e-001	3.778261e-007	9.964830e-001	2.618479e-001	9.964828e-001
1.600013479668462e-005	-2.618476e-001	4.301221e-007	9.964842e-001	2.618479e-001	9.964839e-001
1.600019791496519e-005	-2.618476e-001	4.278340e-007	9.964857e-001	2.618478e-001	9.964854e-001
1.600026414112169e-005	-2.618475e-001	4.429203e-007	9.964873e-001	2.618478e-001	9.964870e-001
1.600036279439301e-005	-2.618475e-001	4.403901e-007	9.964897e-001	2.618478e-001	9.964894e-001
1.600049868843729e-005	-2.618474e-001	4.404137e-007	9.964929e-001	2.618477e-001	9.964927e-001
1.600072821191130e-005	-2.618473e-001	4.298451e-007	9.964985e-001	2.618476e-001	9.964982e-001
1.600099999999986e-005	-2.618472e-001	3.791697e-007	9.965050e-001	2.618475e-001	9.965048e-001
1.600102717880855e-005	-2.618472e-001	3.988245e-007	9.965057e-001	2.618474e-001	9.965054e-001
1.600108153642591e-005	-2.618472e-001	3.998354e-007	9.965070e-001	2.618474e-001	9.965068e-001
1.600119025166151e-005	-2.618471e-001	3.734242e-007	9.965096e-001	2.618474e-001	9.965094e-001
1.600128882030261e-005	-2.618471e-001	3.596273e-007	9.965120e-001	2.618473e-001	9.965118e-001
1.600142290821439e-005	-2.618470e-001	3.564078e-007	9.965152e-001	2.618473e-001	9.965150e-001
1.600159223961572e-005	-2.618470e-001	3.607443e-007	9.965193e-001	2.618472e-001	9.965191e-001
1.600193090241838e-005	-2.618468e-001	3.709117e-007	9.965275e-001	2.618470e-001	9.965273e-001
1.600240309093497e-005	-2.618466e-001	3.785158e-007	9.965389e-001	2.618468e-001	9.965386e-001
1.600290285647989e-005	-2.618463e-001	3.813184e-007	9.965509e-001	2.618466e-001	9.965507e-001
1.600360848469460e-005	-2.618460e-001	3.821995e-007	9.965679e-001	2.618462e-001	9.965677e-001
1.600462352367976e-005	-2.618455e-001	3.824502e-007	9.965924e-001	2.618458e-001	9.965922e-001
1.600665360165007e-005	-2.618446e-001	3.824859e-007	9.966413e-001	2.618448e-001	9.966411e-001
1.601071375759069e-005	-2.618427e-001	3.825296e-007	9.967392e-001	2.618430e-001	9.967390e-001
1.601883406947106e-005	-2.618389e-001	3.824296e-007	9.969350e-001	2.618392e-001	9.969347e-001
1.602290769780589e-005	-2.618371e-001	3.817888e-007	9.970331e-001	2.618373e-001	9.970329e-001
1.602532430596687e-005	-2.618359e-001	3.802116e-007	9.970914e-001	2.618362e-001	9.970911e-001
1.602676629936829e-005	-2.618353e-001	3.775046e-007	9.971261e-001	2.618355e-001	9.971259e-001
1.602812626077046e-005	-2.618347e-001	3.724111e-007	9.971589e-001	2.618349e-001	9.971587e-001
1.602913835640520e-005	-2.618342e-001	3.660606e-007	9.971833e-001	2.618344e-001	9.971831e-001
1.603001262827884e-005	-2.618338e-001	3.576732e-007	9.972044e-001	2.618340e-001	9.972042e-001
1.603079136163789e-005	-2.618335e-001	3.470775e-007	9.972231e-001	2.618336e-001	9.972230e-001
1.603156003614995e-005	-2.618331e-001	3.330670e-007	9.972417e-001	2.618333e-001	9.972415e-001
1.603237494598227e-005	-2.618327e-001	3.143587e-007	9.972613e-001	2.618329e-001	9.972612e-001
1.603319829372382e-005	-2.618324e-001	2.917156e-007	9.972811e-001	2.618325e-001	9.972810e-001
1.603418039525673e-005	-2.618320e-001	2.610695e-007	9.973049e-001	2.618321e-001	9.973047e-001
1.603547522672881e-005	-2.618314e-001	2.204271e-007	9.973360e-001	2.618315e-001	9.973359e-001
1.603718282915546e-005	-2.618307e-001	1.782769e-007	9.973772e-001	2.618307e-001	9.973772e-001
1.603978916037488e-005	-2.618295e-001	1.467874e-007	9.974400e-001	2.618295e-001	9.974400e-001
1.604269596802797e-005	-2.618281e-001	1.459124e-007	9.975101e-001	2.618281e-001	9.975101e-001
1.604586594214624e-005	-2.618266e-001	1.578092e-007	9.975865e-001	2.618267e-001	9.975865e-001
1.604879817460742e-005	-2.618255e-001	-6.909586e-008	9.976572e-001	2.618253e-001	9.976574e-001
1.605074646789800e-005	-2.618262e-001	-1.648628e-006	9.977041e-001	2.618244e-001	9.977059e-001
1.605210400234831e-005	-2.618273e-001	-3.430650e-006	9.977369e-001	2.618237e-001	9.977403e-001
1.605369285099124e-005	-2.618272e-001	-4.050230e-006	9.977751e-001	2.618230e-001	9.977791e-001
1.605510150418273e-005	-2.618261e-001	-3.609392e-006	9.978091e-001	2.618223e-001	9.978127e-001
1.605663176374589e-005	-2.618250e-001	-3.239946e-006	9.978460e-001	2.618216e-001	9.978493e-001
1.605965803860854e-005	-2.618230e-001	-2.575791e-006	9.979190e-001	2.618203e-001	9.979216e-001
1.606252827334592e-005	-2.618212e-001	-2.161549e-006	9.979882e-001	2.618189e-001	9.979905e-001
1.606826874282069e-005	-2.618182e-001	-1.775617e-006	9.981266e-001	2.618163e-001	9.981286e-001
1.607383746781137e-005	-2.618154e-001	-1.553066e-006	9.982610e-001	2.618137e-001	9.982626e-001
1.608497491779361e-005	-2.618099e-001	-1.184389e-006	9.985297e-001	2.618085e-001	9.985310e-001
1.610102625679202e-005	-2.618019e-001	-6.672059e-007	9.989170e-001	2.618011e-001	9.989178e-001
1.612432012983341e-005	-2.617903e-001	1.023728e-007	9.994792e-001	2.617903e-001	9.994793e-001
1.614328114573054e-005	-2.617809e-001	8.211103e-007	9.999368e-001	2.617815e-001	9.999362e-001
1.615208884849732e-005	-2.617764e-001	1.233881e-006	1.000149e+000	2.617775e-001	1.000148e+000
1.615650761895102e-005	-2.617741e-001	1.443009e-006	1.000256e+000	2.617754e-001	1.000255e+000
1.616135945395683e-005	-2.617717e-001	1.629765e-006	1.000373e+000	2.617732e-001	1.000372e+000
1.616354784516206e-005	-2.617706e-001	1.681446e-006	1.000426e+000	2.617722e-001	1.000424e+000
1.616619912711732e-005	-2.617694e-001	1.717674e-006	1.000490e+000	2.617709e-001	1.000488e+000
1.616805535129169e-005	-2.617685e-001	1.731526e-006	1.000535e+000	2.617701e-001	1.000533e+000
1.617023324405539e-005	-2.617674e-001	1.742694e-006	1.000587e+000	2.617691e-001	1.000586e+000
1.617255672724076e-005	-2.617663e-001	1.755587e-006	1.000643e+000	2.617680e-001	1.000642e+000
1.617517010900696e-005	-2.617651e-001	1.766055e-006	1.000706e+000	2.617668e-001	1.000705e+000
1.617860015965499e-005	-2.617635e-001	1.782341e-006	1.000789e+000	2.617652e-001	1.000787e+000
1.618205188691577e-005	-2.617619e-001	1.797187e-006	1.000872e+000	2.617636e-001	1.000871e+000
1.618814175765281e-005	-2.617591e-001	1.828749e-006	1.001019e+000	2.617607e-001	1.001017e+000
1.619419812253810e-005	-2.617562e-001	1.864543e-006	1.001165e+000	2.617579e-001	1.001163e+000
1.620631085230782e-005	-2.617505e-001	1.959408e-006	1.001457e+000	2.617523e-001	1.001455e+000
1.622026897473480e-005	-2.617439e-001	2.122726e-006	1.001793e+000	2.617459e-001	1.001791e+000
1.624818521958876e-005	-2.617303e-001	2.745865e-006	1.002466e+000	2.617329e-001	1.002463e+000
1.628530311383568e-005	-2.617112e-001	4.704453e-006	1.003359e+000	2.617158e-001	1.003353e+000
1.631236125295647e-005	-2.616949e-001	8.520602e-006	1.004009e+000	2.617033e-001	1.004000e+000
1.633034890281306e-005	-2.616800e-001	1.516432e-005	1.004440e+000	2.616950e-001	1.004425e+000
1.634272911812083e-005	-2.616631e-001	2.643225e-005	1.004735e+000	2.616894e-001	1.004709e+000
1.635194434792750e-005	-2.616391e-001	4.631136e-005	1.004955e+000	2.616853e-001	1.004909e+000
1.635908490408948e-005	-2.616000e-001	8.238140e-005	1.005124e+000	2.616823e-001	1.005042e+000
1.636470174910896e-005	-2.615317e-001	1.487195e-004	1.005257e+000	2.616803e-001	1.005108e+000
1.636921855080291e-005	-2.614093e-001	2.701089e-004	1.005362e+000	2.616793e-001	1.005090e+000
1.637388861517632e-005	-2.612681e-001	4.103805e-004	1.005469e+000	2.616783e-001	1.005055e+000
1.637850717205874e-005	-2.612157e-001	4.610351e-004	1.005572e+000	2.616767e-001	1.005108e+000
1.638408097173836e-005	-2.612126e-001	4.616570e-004	1.005692e+000	2.616741e-001	1.005228e+000
1.638921245377539e-005	-2.612067e-001	4.652031e-004	1.005798e+000	2.616717e-001	1.005332e+000
1.639947541784946e-005	-2.611980e-001	4.691759e-004	1.005996e+000	2.616670e-001	1.005526e+000
1.642000134599760e-005	-2.611776e-001	4.801721e-004	1.006340e+000	2.616576e-001	1.005860e+000
1.645379728760447e-005	-2.611434e-001	4.988706e-004	1.006812e+000	2.616422e-001	1.006313e+000
1.646860669272682e-005	-2.611217e-001	5.139009e-004	1.006978e+000	2.616355e-001	1.006464e+000
1.647695113048391e-005	-2.609826e-001	6.503178e-004	1.007053e+000	2.616328e-001	1.006402e+000
1.648041691696724e-005	-2.609417e-001	6.900266e-004	1.007081e+000	2.616316e-001	1.006389e+000
1.648186700319802e-005	-2.611102e-001	5.193368e-004	1.007092e+000	2.616294e-001	1.006572e+000
1.648287788805908e-005	-2.612539e-001	3.738143e-004	1.007099e+000	2.616276e-001	1.006719e+000
1.648348795227263e-005	-2.612426e-001	3.849504e-004	1.007103e+000	2.616274e-001	1.006708e+000
1.648426085825057e-005	-2.611846e-001	4.430989e-004	1.007108e+000	2.616276e-001	1.006660e+000
