time	V(vc)	V(vdd)	V(vo)	V(vsw)
0.000000000000000e+000	1.661897e+001	6.000000e+000	1.658233e+001	2.263690e+000
8.487157972941750e-010	1.661896e+001	6.000000e+000	1.658235e+001	2.218939e+000
2.546147391882525e-009	1.661895e+001	6.000000e+000	1.658235e+001	2.128757e+000
5.941010580191863e-009	1.661892e+001	6.000000e+000	1.658232e+001	1.944877e+000
1.273073695681054e-008	1.661887e+001	6.000000e+000	1.658226e+001	1.563056e+000
2.631018971004789e-008	1.661877e+001	6.000000e+000	1.658214e+001	7.675008e-001
3.245081916028458e-008	1.661873e+001	6.000000e+000	1.658209e+001	3.940328e-001
3.604161945107431e-008	1.661870e+001	6.000000e+000	1.658211e+001	1.755897e-001
3.779790437585806e-008	1.661869e+001	6.000000e+000	1.658221e+001	8.269332e-002
3.864238683464610e-008	1.661868e+001	6.000000e+000	1.658230e+001	5.330110e-002
3.972605376774407e-008	1.661867e+001	6.000000e+000	1.658240e+001	3.327296e-002
4.021870242919279e-008	1.661867e+001	6.000000e+000	1.658242e+001	2.833260e-002
4.077946044993980e-008	1.661867e+001	6.000000e+000	1.658243e+001	2.522512e-002
4.142525489823912e-008	1.661866e+001	6.000000e+000	1.658243e+001	2.273463e-002
4.235230309339311e-008	1.661865e+001	6.000000e+000	1.658243e+001	2.022993e-002
4.338807456111954e-008	1.661865e+001	6.000000e+000	1.658243e+001	1.823117e-002
4.471526587109670e-008	1.661864e+001	6.000000e+000	1.658242e+001	1.640218e-002
4.644826321828499e-008	1.661863e+001	6.000000e+000	1.658241e+001	1.469305e-002
4.868952673160731e-008	1.661861e+001	6.000000e+000	1.658240e+001	1.314187e-002
5.153507544753549e-008	1.661859e+001	6.000000e+000	1.658238e+001	1.177743e-002
5.485964303750951e-008	1.661856e+001	6.000000e+000	1.658236e+001	1.068682e-002
5.936561331756907e-008	1.661853e+001	6.000000e+000	1.658232e+001	9.682264e-003
6.450722030062334e-008	1.661849e+001	6.000000e+000	1.658229e+001	8.907538e-003
7.184437201147170e-008	1.661844e+001	6.000000e+000	1.658223e+001	8.168454e-003
7.991742432145871e-008	1.661838e+001	6.000000e+000	1.658218e+001	7.625509e-003
9.236935616125513e-008	1.661829e+001	6.000000e+000	1.658209e+001	7.072246e-003
1.054961243788025e-007	1.661820e+001	6.000000e+000	1.658199e+001	6.681875e-003
1.275911724529441e-007	1.661804e+001	6.000000e+000	1.658183e+001	6.240422e-003
1.498326582657569e-007	1.661788e+001	6.000000e+000	1.658167e+001	5.918860e-003
1.913034773318861e-007	1.661758e+001	6.000000e+000	1.658137e+001	5.429686e-003
2.286827099065233e-007	1.661731e+001	6.000000e+000	1.658110e+001	4.977499e-003
2.609716622369723e-007	1.661707e+001	6.000000e+000	1.658087e+001	4.528875e-003
3.015579100335702e-007	1.661678e+001	6.000000e+000	1.658058e+001	3.904595e-003
3.275468071738119e-007	1.661659e+001	6.000000e+000	1.658039e+001	3.504791e-003
3.480682965739668e-007	1.661644e+001	6.000000e+000	1.658024e+001	3.213876e-003
3.753156639588889e-007	1.661624e+001	6.000000e+000	1.658004e+001	2.874707e-003
4.067889326489146e-007	1.661602e+001	6.000000e+000	1.657981e+001	2.543417e-003
4.469731535216084e-007	1.661572e+001	6.000000e+000	1.657952e+001	2.202811e-003
4.916589978346334e-007	1.661540e+001	6.000000e+000	1.657920e+001	1.914572e-003
5.481812419133592e-007	1.661499e+001	6.000000e+000	1.657879e+001	1.653785e-003
6.032058197623369e-007	1.661459e+001	6.000000e+000	1.657840e+001	1.482458e-003
6.559513989418467e-007	1.661421e+001	6.000000e+000	1.657801e+001	1.381076e-003
7.115824550108993e-007	1.661381e+001	6.000000e+000	1.657761e+001	1.322694e-003
7.682033174921318e-007	1.661340e+001	6.000000e+000	1.657720e+001	1.299258e-003
8.219864695941867e-007	1.661301e+001	6.000000e+000	1.657682e+001	1.301957e-003
8.724009557120604e-007	1.661264e+001	6.000000e+000	1.657645e+001	1.321245e-003
9.228304252741071e-007	1.661228e+001	6.000000e+000	1.657609e+001	1.352738e-003
9.804277606943052e-007	1.661186e+001	6.000000e+000	1.657567e+001	1.399041e-003
1.037851177853634e-006	1.661145e+001	6.000000e+000	1.657526e+001	1.453156e-003
1.106601508329107e-006	1.661095e+001	6.000000e+000	1.657476e+001	1.525240e-003
1.174026084469274e-006	1.661046e+001	6.000000e+000	1.657427e+001	1.601118e-003
1.248102066172055e-006	1.660993e+001	6.000000e+000	1.657374e+001	1.688665e-003
1.327802359707073e-006	1.660935e+001	6.000000e+000	1.657316e+001	1.785893e-003
1.403348523755510e-006	1.660880e+001	6.000000e+000	1.657262e+001	1.880015e-003
1.480767170545724e-006	1.660824e+001	6.000000e+000	1.657206e+001	1.977801e-003
1.553502806291018e-006	1.660772e+001	6.000000e+000	1.657153e+001	2.070480e-003
1.623573718110422e-006	1.660721e+001	6.000000e+000	1.657103e+001	2.160293e-003
1.697302664983511e-006	1.660667e+001	6.000000e+000	1.657049e+001	2.255173e-003
1.764371827627301e-006	1.660619e+001	6.000000e+000	1.657001e+001	2.341727e-003
1.836442735474869e-006	1.660567e+001	6.000000e+000	1.656949e+001	2.434928e-003
1.906704517772549e-006	1.660516e+001	6.000000e+000	1.656898e+001	2.525922e-003
1.976501175419629e-006	1.660465e+001	6.000000e+000	1.656848e+001	2.616420e-003
2.067037965019711e-006	1.660400e+001	6.000000e+000	1.656783e+001	2.733910e-003
2.154260135054861e-006	1.660337e+001	6.000000e+000	1.656720e+001	2.847179e-003
2.289937400499174e-006	1.660239e+001	6.000000e+000	1.656622e+001	3.023463e-003
2.420424836082485e-006	1.660144e+001	6.000000e+000	1.656527e+001	3.193060e-003
2.681399707248240e-006	1.659956e+001	6.000000e+000	1.656339e+001	3.532282e-003
2.934035817895968e-006	1.659773e+001	6.000000e+000	1.656157e+001	3.860568e-003
3.398035817896335e-006	1.659437e+001	6.000000e+000	1.655822e+001	4.463104e-003
3.862035817896702e-006	1.659102e+001	6.000000e+000	1.655487e+001	5.065029e-003
4.326035817897068e-006	1.658766e+001	6.000000e+000	1.655153e+001	5.666185e-003
4.790035817897435e-006	1.658431e+001	6.000000e+000	1.654818e+001	6.266523e-003
5.254035817897802e-006	1.658096e+001	6.000000e+000	1.654483e+001	6.866016e-003
5.718035817898169e-006	1.657761e+001	6.000000e+000	1.654149e+001	7.464652e-003
6.182035817898536e-006	1.657425e+001	6.000000e+000	1.653815e+001	8.062422e-003
6.646035817898903e-006	1.657090e+001	6.000000e+000	1.653480e+001	8.659326e-003
7.110035817899270e-006	1.656755e+001	6.000000e+000	1.653146e+001	9.255356e-003
7.574035817899637e-006	1.656421e+001	6.000000e+000	1.652812e+001	9.850515e-003
8.038035817900004e-006	1.656086e+001	6.000000e+000	1.652478e+001	1.044480e-002
8.502035817900371e-006	1.655751e+001	6.000000e+000	1.652143e+001	1.103821e-002
8.966035817900737e-006	1.655416e+001	6.000000e+000	1.651810e+001	1.163075e-002
9.430035817901104e-006	1.655082e+001	6.000000e+000	1.651476e+001	1.222242e-002
9.894035817901471e-006	1.654747e+001	6.000000e+000	1.651142e+001	1.281322e-002
1.035803581790184e-005	1.654412e+001	6.000000e+000	1.650808e+001	1.340315e-002
1.082203581790221e-005	1.654078e+001	6.000000e+000	1.650474e+001	1.399221e-002
1.128603581790257e-005	1.653744e+001	6.000000e+000	1.650141e+001	1.458040e-002
1.221403581790331e-005	1.653075e+001	6.000000e+000	1.649474e+001	1.575418e-002
1.314203581790404e-005	1.652407e+001	6.000000e+000	1.648807e+001	1.692451e-002
1.407003581790477e-005	1.651739e+001	6.000000e+000	1.648140e+001	1.809139e-002
1.499803581790551e-005	1.651071e+001	6.000000e+000	1.647474e+001	1.925483e-002
1.553599999999916e-005	1.650684e+001	6.000000e+000	1.647088e+001	1.992791e-002
1.568392836418572e-005	1.650578e+001	6.000000e+000	1.646981e+001	2.011276e-002
1.574457308650776e-005	1.650534e+001	6.000000e+000	1.646938e+001	2.018849e-002
1.589542649533312e-005	1.650425e+001	6.000000e+000	1.646830e+001	2.037685e-002
1.593853462051372e-005	1.650394e+001	6.000000e+000	1.646799e+001	2.043095e-002
1.593953462051406e-005	1.650394e+001	6.000000e+000	1.646798e+001	2.043207e-002
1.594153462051474e-005	1.650392e+001	6.000000e+000	1.646797e+001	2.043437e-002
1.594414940491850e-005	1.650390e+001	6.000000e+000	1.646795e+001	2.043767e-002
1.594699697812351e-005	1.650388e+001	6.000000e+000	1.646793e+001	2.044119e-002
1.595269212453440e-005	1.650384e+001	6.000000e+000	1.646789e+001	2.044833e-002
1.596232617055455e-005	1.650377e+001	6.000000e+000	1.646782e+001	2.046034e-002
1.597797859250166e-005	1.650366e+001	6.000000e+000	1.646770e+001	2.047979e-002
1.597897859250200e-005	1.650365e+001	6.000000e+000	1.646770e+001	2.048107e-002
1.598097859250268e-005	1.650364e+001	6.000000e+000	1.646768e+001	2.048364e-002
1.598497859250404e-005	1.650361e+001	6.000000e+000	1.646766e+001	2.048861e-002
1.599155386272210e-005	1.650356e+001	6.000000e+000	1.646761e+001	2.049678e-002
1.599255386272244e-005	1.650356e+001	6.000000e+000	1.646760e+001	2.049804e-002
1.599455386272312e-005	1.650354e+001	6.000000e+000	1.646759e+001	2.050056e-002
1.599599999999816e-005	1.650353e+001	6.000000e+000	1.646758e+001	2.050237e-002
1.599710772544945e-005	1.650352e+001	6.000000e+000	1.646757e+001	2.050375e-002
1.599778454909693e-005	1.650352e+001	6.000000e+000	1.646756e+001	2.050459e-002
1.599864635270457e-005	1.650351e+001	6.000000e+000	1.646756e+001	2.050567e-002
1.599899999999918e-005	1.650351e+001	6.000000e+000	1.646755e+001	2.050611e-002
1.599929270541031e-005	1.650351e+001	6.000000e+000	1.646755e+001	2.050648e-002
1.599941458917727e-005	1.650351e+001	6.000000e+000	1.646755e+001	2.050663e-002
1.599965835671121e-005	1.650350e+001	6.000000e+000	1.646755e+001	2.050694e-002
1.599999999999952e-005	1.650350e+001	6.000000e+000	1.646755e+001	2.050734e-002
1.600001301703749e-005	1.650350e+001	6.000000e+000	1.646755e+001	2.050736e-002
1.600003905111343e-005	1.650350e+001	6.000000e+000	1.646755e+001	2.050743e-002
1.600008383100850e-005	1.650350e+001	6.000000e+000	1.646755e+001	2.050754e-002
1.600013176714446e-005	1.650350e+001	6.000000e+000	1.646755e+001	2.050770e-002
1.600019629543169e-005	1.650350e+001	6.000000e+000	1.646754e+001	2.050797e-002
1.600025977739790e-005	1.650350e+001	6.000000e+000	1.646754e+001	2.050828e-002
1.600035982501219e-005	1.650350e+001	6.000000e+000	1.646754e+001	2.050881e-002
1.600049053953560e-005	1.650350e+001	6.000000e+000	1.646754e+001	2.050948e-002
1.600075196858328e-005	1.650350e+001	6.000000e+000	1.646754e+001	2.051070e-002
1.600099999999986e-005	1.650349e+001	6.000000e+000	1.646754e+001	2.051175e-002
1.600102480314117e-005	1.650349e+001	6.000000e+000	1.646754e+001	2.051183e-002
1.600107440942467e-005	1.650349e+001	6.000000e+000	1.646754e+001	2.051196e-002
1.600117362199165e-005	1.650349e+001	6.000000e+000	1.646754e+001	2.051208e-002
1.600127041165040e-005	1.650349e+001	6.000000e+000	1.646754e+001	2.051209e-002
1.600139913621179e-005	1.650349e+001	6.000000e+000	1.646754e+001	2.051203e-002
1.600156036526360e-005	1.650349e+001	6.000000e+000	1.646754e+001	2.051197e-002
1.600188282336722e-005	1.650349e+001	6.000000e+000	1.646753e+001	2.051202e-002
1.600231225195887e-005	1.650348e+001	6.000000e+000	1.646753e+001	2.051231e-002
1.600281516432427e-005	1.650348e+001	6.000000e+000	1.646753e+001	2.051281e-002
1.600346576072394e-005	1.650348e+001	6.000000e+000	1.646752e+001	2.051356e-002
1.600443408545163e-005	1.650347e+001	6.000000e+000	1.646751e+001	2.051471e-002
1.600618132430263e-005	1.650346e+001	6.000000e+000	1.646750e+001	2.051680e-002
1.600967580200376e-005	1.650343e+001	6.000000e+000	1.646748e+001	2.052099e-002
1.601666475740601e-005	1.650338e+001	6.000000e+000	1.646743e+001	2.052940e-002
1.602011422000785e-005	1.650336e+001	6.000000e+000	1.646740e+001	2.053353e-002
1.602393325531460e-005	1.650333e+001	6.000000e+000	1.646737e+001	2.053798e-002
1.602596727128154e-005	1.650331e+001	6.000000e+000	1.646736e+001	2.054017e-002
1.602734508977365e-005	1.650331e+001	6.000000e+000	1.646735e+001	2.054139e-002
1.602853728555932e-005	1.650330e+001	6.000000e+000	1.646734e+001	2.054208e-002
1.602947241134516e-005	1.650329e+001	6.000000e+000	1.646733e+001	2.054222e-002
1.603029777763956e-005	1.650328e+001	6.000000e+000	1.646733e+001	2.054187e-002
1.603106442650722e-005	1.650328e+001	6.000000e+000	1.646732e+001	2.054099e-002
1.603184302476166e-005	1.650327e+001	6.000000e+000	1.646732e+001	2.053932e-002
1.603269648390790e-005	1.650327e+001	6.000000e+000	1.646731e+001	2.053641e-002
1.603354746240043e-005	1.650326e+001	6.000000e+000	1.646731e+001	2.053205e-002
1.603469622707670e-005	1.650325e+001	6.000000e+000	1.646730e+001	2.052357e-002
1.603608208084612e-005	1.650324e+001	6.000000e+000	1.646729e+001	2.050943e-002
1.603813855044576e-005	1.650323e+001	6.000000e+000	1.646727e+001	2.048241e-002
1.604140629753777e-005	1.650320e+001	6.000000e+000	1.646725e+001	2.043364e-002
1.604451949829659e-005	1.650318e+001	6.000000e+000	1.646723e+001	2.038667e-002
1.604713877064942e-005	1.650316e+001	6.000000e+000	1.646721e+001	2.034800e-002
1.604978589001428e-005	1.650314e+001	6.000000e+000	1.646719e+001	2.026973e-002
1.605122245186292e-005	1.650313e+001	6.000000e+000	1.646718e+001	2.009780e-002
1.605295089473005e-005	1.650312e+001	6.000000e+000	1.646716e+001	1.967344e-002
1.605430513236267e-005	1.650311e+001	6.000000e+000	1.646716e+001	1.927169e-002
1.605579913826517e-005	1.650310e+001	6.000000e+000	1.646714e+001	1.885486e-002
1.605801291478318e-005	1.650308e+001	6.000000e+000	1.646713e+001	1.832166e-002
1.606121393220392e-005	1.650306e+001	6.000000e+000	1.646711e+001	1.767328e-002
1.606465283592734e-005	1.650304e+001	6.000000e+000	1.646708e+001	1.708203e-002
1.607012363763396e-005	1.650300e+001	6.000000e+000	1.646704e+001	1.625449e-002
1.607804226565635e-005	1.650294e+001	6.000000e+000	1.646699e+001	1.520173e-002
1.609034390212365e-005	1.650285e+001	6.000000e+000	1.646690e+001	1.388842e-002
1.611412622932584e-005	1.650268e+001	6.000000e+000	1.646673e+001	1.217475e-002
1.613755315239829e-005	1.650251e+001	6.000000e+000	1.646656e+001	1.134149e-002
1.614785016722936e-005	1.650244e+001	6.000000e+000	1.646649e+001	1.135080e-002
1.615412888021986e-005	1.650239e+001	6.000000e+000	1.646644e+001	1.155488e-002
1.616045528664116e-005	1.650235e+001	6.000000e+000	1.646640e+001	1.188379e-002
1.616364739800806e-005	1.650233e+001	6.000000e+000	1.646637e+001	1.208220e-002
1.616569967362834e-005	1.650231e+001	6.000000e+000	1.646636e+001	1.222002e-002
1.616756320817724e-005	1.650230e+001	6.000000e+000	1.646634e+001	1.234762e-002
1.616976881764400e-005	1.650228e+001	6.000000e+000	1.646633e+001	1.249952e-002
1.617208243709454e-005	1.650226e+001	6.000000e+000	1.646631e+001	1.265938e-002
1.617457125081562e-005	1.650225e+001	6.000000e+000	1.646630e+001	1.283157e-002
1.617736027646494e-005	1.650223e+001	6.000000e+000	1.646627e+001	1.302462e-002
1.618022259600432e-005	1.650221e+001	6.000000e+000	1.646625e+001	1.322262e-002
1.618353098065215e-005	1.650218e+001	6.000000e+000	1.646623e+001	1.345129e-002
1.618689400785783e-005	1.650216e+001	6.000000e+000	1.646621e+001	1.368353e-002
1.619104373631278e-005	1.650213e+001	6.000000e+000	1.646618e+001	1.396996e-002
1.619496857248499e-005	1.650210e+001	6.000000e+000	1.646615e+001	1.424096e-002
1.619992753677194e-005	1.650206e+001	6.000000e+000	1.646611e+001	1.458393e-002
1.620459667077585e-005	1.650203e+001	6.000000e+000	1.646608e+001	1.490804e-002
1.621035422305975e-005	1.650199e+001	6.000000e+000	1.646604e+001	1.531032e-002
1.621633425369449e-005	1.650195e+001	6.000000e+000	1.646599e+001	1.573268e-002
1.622354910485891e-005	1.650189e+001	6.000000e+000	1.646594e+001	1.625122e-002
1.623178968020427e-005	1.650183e+001	6.000000e+000	1.646588e+001	1.686089e-002
1.624249155596051e-005	1.650176e+001	6.000000e+000	1.646581e+001	1.769232e-002
1.625556601066430e-005	1.650167e+001	6.000000e+000	1.646571e+001	1.881053e-002
1.627543057168557e-005	1.650152e+001	6.000000e+000	1.646557e+001	2.087795e-002
1.630195004954666e-005	1.650133e+001	6.000000e+000	1.646538e+001	2.469757e-002
1.632284643630130e-005	1.650118e+001	6.000000e+000	1.646523e+001	2.953263e-002
1.633837684287143e-005	1.650107e+001	6.000000e+000	1.646512e+001	3.581962e-002
1.634934649828723e-005	1.650099e+001	6.000000e+000	1.646505e+001	4.376937e-002
1.635738620968559e-005	1.650093e+001	6.000000e+000	1.646499e+001	5.420323e-002
1.636345401656841e-005	1.650089e+001	6.000000e+000	1.646496e+001	6.824628e-002
1.636812037351856e-005	1.650085e+001	6.000000e+000	1.646494e+001	8.751399e-002
1.637178026583832e-005	1.650083e+001	6.000000e+000	1.646495e+001	1.146457e-001
1.637476884741237e-005	1.650081e+001	6.000000e+000	1.646498e+001	1.559580e-001
1.637809414152276e-005	1.650078e+001	6.000000e+000	1.646502e+001	2.301811e-001
1.638137573845531e-005	1.650076e+001	6.000000e+000	1.646502e+001	3.229801e-001
1.638496176898339e-005	1.650073e+001	6.000000e+000	1.646499e+001	4.306305e-001
1.638864400726071e-005	1.650071e+001	6.000000e+000	1.646497e+001	5.411079e-001
1.639253589383501e-005	1.650068e+001	6.000000e+000	1.646494e+001	6.578247e-001
1.639767670272643e-005	1.650064e+001	6.000000e+000	1.646490e+001	8.119319e-001
1.640388882794257e-005	1.650060e+001	6.000000e+000	1.646486e+001	9.980770e-001
1.641221474047751e-005	1.650054e+001	6.000000e+000	1.646480e+001	1.247456e+000
1.642311597309636e-005	1.650046e+001	6.000000e+000	1.646473e+001	1.573821e+000
1.643862979170893e-005	1.650035e+001	6.000000e+000	1.646462e+001	2.037973e+000
1.646332208200645e-005	1.650017e+001	6.000000e+000	1.646445e+001	2.776107e+000
1.647498440535220e-005	1.650009e+001	6.000000e+000	1.646437e+001	3.124620e+000
1.648223886883699e-005	1.650004e+001	6.000000e+000	1.646433e+001	3.343896e+000
1.648633543578117e-005	1.650001e+001	6.000000e+000	1.646435e+001	3.478611e+000
1.648861074818753e-005	1.649999e+001	6.000000e+000	1.646438e+001	3.566868e+000
1.648981554499066e-005	1.649998e+001	6.000000e+000	1.646432e+001	3.615810e+000
1.649073048467370e-005	1.649998e+001	6.000000e+000	1.646425e+001	3.646638e+000
1.649161692803512e-005	1.649997e+001	6.000000e+000	1.646421e+001	3.669870e+000
1.649245052014279e-005	1.649997e+001	6.000000e+000	1.646420e+001	3.689745e+000
1.649332701634306e-005	1.649996e+001	6.000000e+000	1.646420e+001	3.711190e+000
1.649433276769939e-005	1.649995e+001	6.000000e+000	1.646421e+001	3.737041e+000
1.649528425154770e-005	1.649995e+001	6.000000e+000	1.646421e+001	3.762454e+000
1.649626118211366e-005	1.649994e+001	6.000000e+000	1.646421e+001	3.789448e+000
1.649719656476867e-005	1.649993e+001	6.000000e+000	1.646421e+001	3.816310e+000
1.649816474937581e-005	1.649993e+001	6.000000e+000	1.646422e+001	3.845397e+000
1.649910923517701e-005	1.649992e+001	6.000000e+000	1.646422e+001	3.875185e+000
1.650007558281087e-005	1.649991e+001	6.000000e+000	1.646423e+001	3.907202e+000
1.650102312518009e-005	1.649990e+001	6.000000e+000	1.646424e+001	3.940166e+000
1.650198593499113e-005	1.649990e+001	6.000000e+000	1.646424e+001	3.975325e+000
1.650293573117120e-005	1.649989e+001	6.000000e+000	1.646425e+001	4.011715e+000
1.650389658999687e-005	1.649989e+001	6.000000e+000	1.646426e+001	4.050330e+000
1.650484816642650e-005	1.649988e+001	6.000000e+000	1.646427e+001	4.090426e+000
1.650580756437474e-005	1.649987e+001	6.000000e+000	1.646428e+001	4.132797e+000
1.650676034329213e-005	1.649986e+001	6.000000e+000	1.646429e+001	4.176881e+000
1.650771869774262e-005	1.649986e+001	6.000000e+000	1.646430e+001	4.223318e+000
1.650867234722925e-005	1.649985e+001	6.000000e+000	1.646431e+001	4.271690e+000
1.651154132165360e-005	1.649983e+001	6.000000e+000	1.646435e+001	4.431052e+000
1.651249602522241e-005	1.649982e+001	6.000000e+000	1.646437e+001	4.489075e+000
1.651360347327841e-005	1.649981e+001	6.000000e+000	1.646439e+001	4.559750e+000
1.651485066040022e-005	1.649981e+001	6.000000e+000	1.646441e+001	4.643789e+000
1.651633206239869e-005	1.649980e+001	6.000000e+000	1.646444e+001	4.750003e+000
1.651804089378064e-005	1.649978e+001	6.000000e+000	1.646448e+001	4.881708e+000
1.652014398518999e-005	1.649977e+001	6.000000e+000	1.646453e+001	5.058302e+000
1.652273177011471e-005	1.649975e+001	6.000000e+000	1.646460e+001	5.299649e+000
1.652617394603921e-005	1.649973e+001	6.000000e+000	1.646471e+001	5.666607e+000
1.653091992459728e-005	1.649969e+001	6.000000e+000	1.646490e+001	6.273822e+000
1.653834572000728e-005	1.649964e+001	6.000000e+000	1.646532e+001	7.523214e+000
1.655168236697462e-005	1.649955e+001	6.000000e+000	1.646658e+001	1.047285e+001
