time	V(vc)	V(vdd)	V(vo)	V(vsw)
0.000000000000000e+000	1.521936e+001	6.000000e+000	1.508428e+001	2.556562e+000
1.294425983067171e-009	1.521932e+001	6.000000e+000	1.508424e+001	2.489189e+000
3.883277949201514e-009	1.521925e+001	6.000000e+000	1.508416e+001	2.352754e+000
9.060981882337560e-009	1.521911e+001	6.000000e+000	1.508401e+001	2.071609e+000
1.941638974774229e-008	1.521883e+001	6.000000e+000	1.508372e+001	1.480100e+000
3.570777738336889e-008	1.521839e+001	6.000000e+000	1.508329e+001	5.128723e-001
4.089347844984242e-008	1.521825e+001	6.000000e+000	1.508330e+001	2.326281e-001
4.354417282650958e-008	1.521818e+001	6.000000e+000	1.508337e+001	1.434828e-001
4.614981846586680e-008	1.521811e+001	6.000000e+000	1.508337e+001	1.073873e-001
4.717354649443062e-008	1.521808e+001	6.000000e+000	1.508336e+001	9.949819e-002
4.859555487526923e-008	1.521804e+001	6.000000e+000	1.508333e+001	9.127365e-002
5.026318054390105e-008	1.521800e+001	6.000000e+000	1.508330e+001	8.403635e-002
5.182252847766439e-008	1.521796e+001	6.000000e+000	1.508326e+001	7.883487e-002
5.494122434519105e-008	1.521787e+001	6.000000e+000	1.508319e+001	7.126255e-002
5.892283440160628e-008	1.521776e+001	6.000000e+000	1.508308e+001	6.440125e-002
6.406934299329342e-008	1.521763e+001	6.000000e+000	1.508295e+001	5.845292e-002
7.030675998592056e-008	1.521746e+001	6.000000e+000	1.508279e+001	5.363931e-002
7.774481418018620e-008	1.521726e+001	6.000000e+000	1.508259e+001	4.987860e-002
8.903472123455991e-008	1.521695e+001	6.000000e+000	1.508229e+001	4.613972e-002
1.002167786656044e-007	1.521665e+001	6.000000e+000	1.508199e+001	4.372042e-002
1.177976486025495e-007	1.521618e+001	6.000000e+000	1.508152e+001	4.128006e-002
1.365216058457283e-007	1.521568e+001	6.000000e+000	1.508102e+001	3.957821e-002
1.660829405817146e-007	1.521488e+001	6.000000e+000	1.508023e+001	3.783851e-002
1.976376990389314e-007	1.521403e+001	6.000000e+000	1.507939e+001	3.654401e-002
2.337978926595860e-007	1.521306e+001	6.000000e+000	1.507843e+001	3.541539e-002
2.678572459018438e-007	1.521214e+001	6.000000e+000	1.507752e+001	3.450429e-002
3.070871316922241e-007	1.521108e+001	6.000000e+000	1.507647e+001	3.355337e-002
3.272337727351637e-007	1.521054e+001	6.000000e+000	1.507593e+001	3.311345e-002
3.474681368959356e-007	1.521000e+001	6.000000e+000	1.507539e+001	3.272638e-002
3.743597461400294e-007	1.520927e+001	6.000000e+000	1.507468e+001	3.228359e-002
4.083189109839111e-007	1.520836e+001	6.000000e+000	1.507377e+001	3.181935e-002
4.472642760027651e-007	1.520731e+001	6.000000e+000	1.507273e+001	3.139646e-002
4.926111080577611e-007	1.520609e+001	6.000000e+000	1.507152e+001	3.102520e-002
5.488348718855549e-007	1.520458e+001	6.000000e+000	1.507002e+001	3.069415e-002
6.040357419566725e-007	1.520309e+001	6.000000e+000	1.506855e+001	3.047115e-002
6.562437618691172e-007	1.520168e+001	6.000000e+000	1.506716e+001	3.033515e-002
7.116871390076135e-007	1.520019e+001	6.000000e+000	1.506568e+001	3.024853e-002
7.692935384481792e-007	1.519864e+001	6.000000e+000	1.506414e+001	3.020170e-002
8.213702602302697e-007	1.519724e+001	6.000000e+000	1.506275e+001	3.018713e-002
8.650890674314488e-007	1.519607e+001	6.000000e+000	1.506159e+001	3.019156e-002
9.140866375793519e-007	1.519475e+001	6.000000e+000	1.506028e+001	3.020972e-002
9.626507160472031e-007	1.519344e+001	6.000000e+000	1.505899e+001	3.023722e-002
1.010013006549036e-006	1.519217e+001	6.000000e+000	1.505773e+001	3.027135e-002
1.061600532868343e-006	1.519078e+001	6.000000e+000	1.505635e+001	3.031448e-002
1.109130514298160e-006	1.518950e+001	6.000000e+000	1.505508e+001	3.035842e-002
1.163511544387784e-006	1.518804e+001	6.000000e+000	1.505364e+001	3.041233e-002
1.212483337977716e-006	1.518673e+001	6.000000e+000	1.505233e+001	3.046336e-002
1.268299935364321e-006	1.518523e+001	6.000000e+000	1.505084e+001	3.052369e-002
1.320355002821377e-006	1.518383e+001	6.000000e+000	1.504946e+001	3.058149e-002
1.382535661644674e-006	1.518216e+001	6.000000e+000	1.504780e+001	3.065193e-002
1.442038166449972e-006	1.518056e+001	6.000000e+000	1.504622e+001	3.072046e-002
1.523219487789725e-006	1.517838e+001	6.000000e+000	1.504405e+001	3.081507e-002
1.597514931140145e-006	1.517638e+001	6.000000e+000	1.504208e+001	3.090246e-002
1.675773563449001e-006	1.517428e+001	6.000000e+000	1.503999e+001	3.099517e-002
1.756976976377729e-006	1.517210e+001	6.000000e+000	1.503783e+001	3.109186e-002
1.847907060024447e-006	1.516966e+001	6.000000e+000	1.503541e+001	3.120052e-002
1.958919819040200e-006	1.516668e+001	6.000000e+000	1.503246e+001	3.133361e-002
2.091000732735993e-006	1.516313e+001	6.000000e+000	1.502894e+001	3.149230e-002
2.262758909868379e-006	1.515852e+001	6.000000e+000	1.502438e+001	3.169908e-002
2.491379150417090e-006	1.515239e+001	6.000000e+000	1.501830e+001	3.197461e-002
2.828948457181575e-006	1.514334e+001	6.000000e+000	1.500933e+001	3.238174e-002
3.292948457181942e-006	1.513091e+001	6.000000e+000	1.499701e+001	3.294130e-002
3.756948457182309e-006	1.511849e+001	6.000000e+000	1.498470e+001	3.350054e-002
4.220948457182676e-006	1.510608e+001	6.000000e+000	1.497240e+001	3.405924e-002
4.684948457183043e-006	1.509368e+001	6.000000e+000	1.496011e+001	3.461729e-002
5.148948457183410e-006	1.508129e+001	6.000000e+000	1.494783e+001	3.517463e-002
5.612948457183777e-006	1.506891e+001	6.000000e+000	1.493555e+001	3.573123e-002
6.076948457184143e-006	1.505654e+001	6.000000e+000	1.492329e+001	3.628707e-002
6.540948457184510e-006	1.504418e+001	6.000000e+000	1.491104e+001	3.684215e-002
7.004948457184877e-006	1.503183e+001	6.000000e+000	1.489880e+001	3.739643e-002
7.468948457185244e-006	1.501949e+001	6.000000e+000	1.488657e+001	3.794994e-002
7.932948457185611e-006	1.500716e+001	6.000000e+000	1.487435e+001	3.850265e-002
8.396948457185978e-006	1.499484e+001	6.000000e+000	1.486214e+001	3.905457e-002
8.860948457186345e-006	1.498253e+001	6.000000e+000	1.484994e+001	3.960569e-002
9.324948457186712e-006	1.497023e+001	6.000000e+000	1.483775e+001	4.015602e-002
9.788948457187079e-006	1.495794e+001	6.000000e+000	1.482557e+001	4.070554e-002
1.025294845718745e-005	1.494566e+001	6.000000e+000	1.481340e+001	4.125427e-002
1.071694845718781e-005	1.493339e+001	6.000000e+000	1.480124e+001	4.180220e-002
1.118094845718818e-005	1.492113e+001	6.000000e+000	1.478909e+001	4.234933e-002
1.210894845718891e-005	1.489665e+001	6.000000e+000	1.476482e+001	4.344119e-002
1.303694845718965e-005	1.487220e+001	6.000000e+000	1.474059e+001	4.452986e-002
1.396494845719038e-005	1.484779e+001	6.000000e+000	1.471640e+001	4.561535e-002
1.489294845719111e-005	1.482343e+001	6.000000e+000	1.469225e+001	4.669765e-002
1.535694845719148e-005	1.481126e+001	6.000000e+000	1.468018e+001	4.723775e-002
1.553599999999916e-005	1.480656e+001	6.000000e+000	1.467553e+001	4.744592e-002
1.564189691438418e-005	1.480379e+001	6.000000e+000	1.467278e+001	4.756898e-002
1.578820617122948e-005	1.479995e+001	6.000000e+000	1.466898e+001	4.773418e-002
1.578920617122982e-005	1.479993e+001	6.000000e+000	1.466896e+001	4.773749e-002
1.579120617123050e-005	1.479988e+001	6.000000e+000	1.466890e+001	4.774288e-002
1.579367817803028e-005	1.479981e+001	6.000000e+000	1.466884e+001	4.774511e-002
1.579646510842334e-005	1.479974e+001	6.000000e+000	1.466877e+001	4.774889e-002
1.580090544251161e-005	1.479962e+001	6.000000e+000	1.466865e+001	4.775360e-002
1.580628845859050e-005	1.479948e+001	6.000000e+000	1.466851e+001	4.776008e-002
1.581429672762452e-005	1.479927e+001	6.000000e+000	1.466830e+001	4.776919e-002
1.582554393329046e-005	1.479898e+001	6.000000e+000	1.466801e+001	4.778236e-002
1.584139197663773e-005	1.479856e+001	6.000000e+000	1.466760e+001	4.780068e-002
1.586479545550266e-005	1.479795e+001	6.000000e+000	1.466699e+001	4.782791e-002
1.589811231638219e-005	1.479708e+001	6.000000e+000	1.466613e+001	4.786655e-002
1.594705518398725e-005	1.479579e+001	6.000000e+000	1.466486e+001	4.792206e-002
1.594805518398759e-005	1.479577e+001	6.000000e+000	1.466483e+001	4.792380e-002
1.595005518398827e-005	1.479572e+001	6.000000e+000	1.466478e+001	4.792711e-002
1.595405518398964e-005	1.479561e+001	6.000000e+000	1.466468e+001	4.793148e-002
1.595824509415672e-005	1.479550e+001	6.000000e+000	1.466457e+001	4.793645e-002
1.596662491449175e-005	1.479528e+001	6.000000e+000	1.466435e+001	4.794605e-002
1.598107309299171e-005	1.479490e+001	6.000000e+000	1.466397e+001	4.796236e-002
1.598207309299205e-005	1.479488e+001	6.000000e+000	1.466395e+001	4.796373e-002
1.598407309299273e-005	1.479482e+001	6.000000e+000	1.466390e+001	4.796644e-002
1.598807309299410e-005	1.479472e+001	6.000000e+000	1.466379e+001	4.797096e-002
1.599357021568604e-005	1.479458e+001	6.000000e+000	1.466365e+001	4.797717e-002
1.599457021568638e-005	1.479455e+001	6.000000e+000	1.466362e+001	4.797839e-002
1.599657021568706e-005	1.479450e+001	6.000000e+000	1.466357e+001	4.798079e-002
1.599757021568740e-005	1.479447e+001	6.000000e+000	1.466355e+001	4.798207e-002
1.599799999999884e-005	1.479446e+001	6.000000e+000	1.466354e+001	4.798260e-002
1.599885956862172e-005	1.479444e+001	6.000000e+000	1.466351e+001	4.798353e-002
1.599899999999918e-005	1.479443e+001	6.000000e+000	1.466351e+001	4.798369e-002
1.599928086275411e-005	1.479443e+001	6.000000e+000	1.466350e+001	4.798399e-002
1.599943827448967e-005	1.479442e+001	6.000000e+000	1.466350e+001	4.798416e-002
1.599968517652841e-005	1.479442e+001	6.000000e+000	1.466349e+001	4.798446e-002
1.599999999999952e-005	1.479441e+001	6.000000e+000	1.466348e+001	4.798508e-002
1.600001422964563e-005	1.479441e+001	6.000000e+000	1.466348e+001	4.798503e-002
1.600004268893784e-005	1.479441e+001	6.000000e+000	1.466348e+001	4.798490e-002
1.600008587690060e-005	1.479440e+001	6.000000e+000	1.466348e+001	4.798500e-002
1.600013479668462e-005	1.479440e+001	6.000000e+000	1.466348e+001	4.798516e-002
1.600019791496519e-005	1.479440e+001	6.000000e+000	1.466348e+001	4.798543e-002
1.600026414112169e-005	1.479440e+001	6.000000e+000	1.466348e+001	4.798575e-002
1.600036279439301e-005	1.479440e+001	6.000000e+000	1.466347e+001	4.798626e-002
1.600049868843729e-005	1.479439e+001	6.000000e+000	1.466347e+001	4.798694e-002
1.600072821191130e-005	1.479439e+001	6.000000e+000	1.466346e+001	4.798800e-002
1.600099999999986e-005	1.479438e+001	6.000000e+000	1.466346e+001	4.798912e-002
1.600102717880855e-005	1.479438e+001	6.000000e+000	1.466346e+001	4.798921e-002
1.600108153642591e-005	1.479438e+001	6.000000e+000	1.466346e+001	4.798933e-002
1.600119025166151e-005	1.479438e+001	6.000000e+000	1.466345e+001	4.798945e-002
1.600128882030261e-005	1.479437e+001	6.000000e+000	1.466345e+001	4.798944e-002
1.600142290821439e-005	1.479437e+001	6.000000e+000	1.466345e+001	4.798935e-002
1.600159223961572e-005	1.479437e+001	6.000000e+000	1.466344e+001	4.798929e-002
1.600193090241838e-005	1.479436e+001	6.000000e+000	1.466343e+001	4.798933e-002
1.600240309093497e-005	1.479434e+001	6.000000e+000	1.466342e+001	4.798964e-002
1.600290285647989e-005	1.479433e+001	6.000000e+000	1.466341e+001	4.799011e-002
1.600360848469460e-005	1.479431e+001	6.000000e+000	1.466339e+001	4.799087e-002
1.600462352367976e-005	1.479429e+001	6.000000e+000	1.466336e+001	4.799198e-002
1.600665360165007e-005	1.479423e+001	6.000000e+000	1.466331e+001	4.799424e-002
1.601071375759069e-005	1.479413e+001	6.000000e+000	1.466321e+001	4.799876e-002
1.601883406947106e-005	1.479391e+001	6.000000e+000	1.466299e+001	4.800779e-002
1.602290769780589e-005	1.479381e+001	6.000000e+000	1.466289e+001	4.801225e-002
1.602532430596687e-005	1.479374e+001	6.000000e+000	1.466283e+001	4.801474e-002
1.602676629936829e-005	1.479371e+001	6.000000e+000	1.466279e+001	4.801601e-002
1.602812626077046e-005	1.479367e+001	6.000000e+000	1.466275e+001	4.801686e-002
1.602913835640520e-005	1.479364e+001	6.000000e+000	1.466273e+001	4.801710e-002
1.603001262827884e-005	1.479362e+001	6.000000e+000	1.466270e+001	4.801686e-002
1.603079136163789e-005	1.479360e+001	6.000000e+000	1.466268e+001	4.801611e-002
1.603156003614995e-005	1.479358e+001	6.000000e+000	1.466266e+001	4.801470e-002
1.603237494598227e-005	1.479356e+001	6.000000e+000	1.466264e+001	4.801227e-002
1.603319829372382e-005	1.479354e+001	6.000000e+000	1.466262e+001	4.800859e-002
1.603418039525673e-005	1.479351e+001	6.000000e+000	1.466260e+001	4.800222e-002
1.603547522672881e-005	1.479348e+001	6.000000e+000	1.466256e+001	4.799048e-002
1.603718282915546e-005	1.479343e+001	6.000000e+000	1.466252e+001	4.796992e-002
1.603978916037488e-005	1.479337e+001	6.000000e+000	1.466245e+001	4.793241e-002
1.604269596802797e-005	1.479329e+001	6.000000e+000	1.466238e+001	4.788827e-002
1.604586594214624e-005	1.479321e+001	6.000000e+000	1.466229e+001	4.784139e-002
1.604879817460742e-005	1.479313e+001	6.000000e+000	1.466222e+001	4.778394e-002
1.605074646789800e-005	1.479308e+001	6.000000e+000	1.466217e+001	4.765258e-002
1.605210400234831e-005	1.479304e+001	6.000000e+000	1.466213e+001	4.739336e-002
1.605369285099124e-005	1.479300e+001	6.000000e+000	1.466209e+001	4.693380e-002
1.605510150418273e-005	1.479296e+001	6.000000e+000	1.466205e+001	4.652554e-002
1.605663176374589e-005	1.479292e+001	6.000000e+000	1.466201e+001	4.613593e-002
1.605965803860854e-005	1.479284e+001	6.000000e+000	1.466193e+001	4.547000e-002
1.606252827334592e-005	1.479277e+001	6.000000e+000	1.466186e+001	4.493982e-002
1.606826874282069e-005	1.479262e+001	6.000000e+000	1.466171e+001	4.403984e-002
1.607383746781137e-005	1.479247e+001	6.000000e+000	1.466157e+001	4.327737e-002
1.608497491779361e-005	1.479218e+001	6.000000e+000	1.466128e+001	4.201121e-002
1.610102625679202e-005	1.479176e+001	6.000000e+000	1.466086e+001	4.068894e-002
1.612432012983341e-005	1.479115e+001	6.000000e+000	1.466026e+001	3.968175e-002
1.614328114573054e-005	1.479066e+001	6.000000e+000	1.465977e+001	3.961892e-002
1.615208884849732e-005	1.479043e+001	6.000000e+000	1.465954e+001	3.992147e-002
1.615650761895102e-005	1.479031e+001	6.000000e+000	1.465942e+001	4.020212e-002
1.616135945395683e-005	1.479018e+001	6.000000e+000	1.465930e+001	4.058789e-002
1.616354784516206e-005	1.479012e+001	6.000000e+000	1.465924e+001	4.077940e-002
1.616619912711732e-005	1.479006e+001	6.000000e+000	1.465917e+001	4.102306e-002
1.616805535129169e-005	1.479001e+001	6.000000e+000	1.465912e+001	4.119667e-002
1.617023324405539e-005	1.478995e+001	6.000000e+000	1.465907e+001	4.140269e-002
1.617255672724076e-005	1.478989e+001	6.000000e+000	1.465901e+001	4.162442e-002
1.617517010900696e-005	1.478982e+001	6.000000e+000	1.465894e+001	4.187608e-002
1.617860015965499e-005	1.478973e+001	6.000000e+000	1.465885e+001	4.220951e-002
1.618205188691577e-005	1.478964e+001	6.000000e+000	1.465876e+001	4.254930e-002
1.618814175765281e-005	1.478948e+001	6.000000e+000	1.465860e+001	4.315853e-002
1.619419812253810e-005	1.478932e+001	6.000000e+000	1.465845e+001	4.378131e-002
1.620631085230782e-005	1.478901e+001	6.000000e+000	1.465813e+001	4.508488e-002
1.622026897473480e-005	1.478864e+001	6.000000e+000	1.465777e+001	4.675020e-002
1.624818521958876e-005	1.478791e+001	6.000000e+000	1.465704e+001	5.096317e-002
1.628530311383568e-005	1.478694e+001	6.000000e+000	1.465608e+001	5.925259e-002
1.631236125295647e-005	1.478623e+001	6.000000e+000	1.465538e+001	6.967691e-002
1.633034890281306e-005	1.478576e+001	6.000000e+000	1.465492e+001	8.239818e-002
1.634272911812083e-005	1.478544e+001	6.000000e+000	1.465460e+001	9.831875e-002
1.635194434792750e-005	1.478519e+001	6.000000e+000	1.465438e+001	1.195224e-001
1.635908490408948e-005	1.478501e+001	6.000000e+000	1.465421e+001	1.488619e-001
1.636470174910896e-005	1.478486e+001	6.000000e+000	1.465409e+001	1.905356e-001
1.636921855080291e-005	1.478474e+001	6.000000e+000	1.465404e+001	2.543456e-001
1.637388861517632e-005	1.478462e+001	6.000000e+000	1.465399e+001	3.632479e-001
1.637850717205874e-005	1.478450e+001	6.000000e+000	1.465389e+001	4.999675e-001
1.638408097173836e-005	1.478435e+001	6.000000e+000	1.465375e+001	6.738698e-001
1.638921245377539e-005	1.478422e+001	6.000000e+000	1.465362e+001	8.337820e-001
1.639947541784946e-005	1.478395e+001	6.000000e+000	1.465335e+001	1.153629e+000
1.642000134599760e-005	1.478342e+001	6.000000e+000	1.465283e+001	1.792809e+000
1.645379728760447e-005	1.478253e+001	6.000000e+000	1.465196e+001	2.844343e+000
1.646860669272682e-005	1.478215e+001	6.000000e+000	1.465159e+001	3.306288e+000
1.647695113048391e-005	1.478193e+001	6.000000e+000	1.465144e+001	3.582248e+000
1.648041691696724e-005	1.478184e+001	6.000000e+000	1.465137e+001	3.715604e+000
1.648186700319802e-005	1.478180e+001	6.000000e+000	1.465125e+001	3.770809e+000
1.648287788805908e-005	1.478177e+001	6.000000e+000	1.465115e+001	3.799693e+000
1.648348795227263e-005	1.478176e+001	6.000000e+000	1.465114e+001	3.813938e+000
1.648426085825057e-005	1.478174e+001	6.000000e+000	1.465115e+001	3.833300e+000
1.648499825771237e-005	1.478172e+001	6.000000e+000	1.465114e+001	3.853299e+000
1.648580296627171e-005	1.478170e+001	6.000000e+000	1.465112e+001	3.875641e+000
1.648657427464392e-005	1.478168e+001	6.000000e+000	1.465110e+001	3.897253e+000
1.648748019343616e-005	1.478165e+001	6.000000e+000	1.465109e+001	3.923394e+000
1.648848164112655e-005	1.478163e+001	6.000000e+000	1.465107e+001	3.953649e+000
1.648944959311942e-005	1.478160e+001	6.000000e+000	1.465106e+001	3.984415e+000
1.649041163178083e-005	1.478158e+001	6.000000e+000	1.465105e+001	4.016588e+000
1.649135578096761e-005	1.478155e+001	6.000000e+000	1.465104e+001	4.049810e+000
1.649231533255944e-005	1.478153e+001	6.000000e+000	1.465104e+001	4.085337e+000
1.649326744112677e-005	1.478150e+001	6.000000e+000	1.465103e+001	4.122417e+000
1.649422765415912e-005	1.478148e+001	6.000000e+000	1.465102e+001	4.161739e+000
1.649518031493231e-005	1.478145e+001	6.000000e+000	1.465101e+001	4.202744e+000
1.649613866198593e-005	1.478143e+001	6.000000e+000	1.465101e+001	4.246085e+000
1.649709214760278e-005	1.478140e+001	6.000000e+000	1.465100e+001	4.291371e+000
1.649804987418398e-005	1.478138e+001	6.000000e+000	1.465100e+001	4.339124e+000
1.649900408386487e-005	1.478135e+001	6.000000e+000	1.465100e+001	4.389048e+000
1.649996124641895e-005	1.478133e+001	6.000000e+000	1.465100e+001	4.441575e+000
1.650091589677685e-005	1.478130e+001	6.000000e+000	1.465100e+001	4.496501e+000
1.650187266086928e-005	1.478128e+001	6.000000e+000	1.465100e+001	4.554190e+000
1.650282764241191e-005	1.478125e+001	6.000000e+000	1.465100e+001	4.614509e+000
1.650378412610971e-005	1.478123e+001	6.000000e+000	1.465100e+001	4.677824e+000
1.650481155416120e-005	1.478120e+001	6.000000e+000	1.465101e+001	4.749284e+000
1.650601547278658e-005	1.478117e+001	6.000000e+000	1.465101e+001	4.837658e+000
1.650738997513706e-005	1.478113e+001	6.000000e+000	1.465102e+001	4.944919e+000
1.650901956111363e-005	1.478109e+001	6.000000e+000	1.465104e+001	5.081391e+000
1.651094311485354e-005	1.478104e+001	6.000000e+000	1.465107e+001	5.256428e+000
1.651334227177354e-005	1.478098e+001	6.000000e+000	1.465111e+001	5.497689e+000
1.651639537217278e-005	1.478090e+001	6.000000e+000	1.465118e+001	5.845613e+000
1.652058760860317e-005	1.478079e+001	6.000000e+000	1.465132e+001	6.409312e+000
1.652673625110197e-005	1.478063e+001	6.000000e+000	1.465164e+001	7.460034e+000
1.653722982701208e-005	1.478036e+001	6.000000e+000	1.465265e+001	9.752917e+000
1.654393478423780e-005	1.478019e+001	6.000000e+000	1.465387e+001	1.157059e+001
1.654760123585754e-005	1.478010e+001	6.000000e+000	1.465507e+001	1.274317e+001
1.654990375119046e-005	1.478004e+001	6.000000e+000	1.465635e+001	1.355247e+001
1.655140460977804e-005	1.478001e+001	6.000000e+000	1.465765e+001	1.410905e+001
1.655240738706546e-005	1.477998e+001	6.000000e+000	1.465892e+001	1.449329e+001
1.655306971752677e-005	1.477997e+001	6.000000e+000	1.466012e+001	1.475219e+001
1.655350700935365e-005	1.477996e+001	6.000000e+000	1.466208e+001	1.492479e+001
1.655379342484047e-005	1.477995e+001	6.000000e+000	1.466741e+001	1.503691e+001
1.655398335510989e-005	1.477994e+001	6.000000e+000	1.467733e+001	1.510787e+001
1.655416985952944e-005	1.477994e+001	6.000000e+000	1.469357e+001	1.517117e+001
